EXPLAIN											
TAG	GALVEIS										
TITLE	LABEL	GI-GALVEIS	Test &Identifier								
DATE	LABEL	2024-06-24	Date								
TIME	LABEL	7:08:21 PM	Time								
NOTES	NOTES		&Notes...								
	FCATS v19.0.1f5										
PSTAT	PSTAT	REF3000-42167	Potentiostat								
IDCREQ	QUANT	15.000000	DC & Current (A)								
FREQINIT	QUANT	10000.000000	Initial Freq&q. (Hz)								
FREQFINAL	QUANT	0.200000	Final Fre&q. (Hz)								
PTSPERDEC	QUANT	19.000000	Points/&decade								
IACREQ	QUANT	3.500000	AC & Current (A rms)								
AREA	QUANT	50.000000	&Area(cm^2)								
CONDIT	TWOPARAM	F	N/A	N/A	Conditionin&g	Time(s)	E(V)				
DELAY	TWOPARAM	F	N/A	N/A	Init. &Delay	Time(s)	Stab.(mV/s)				
SPEED	SELECTOR	Low Noise	&Optimizer for:								
ZGUESS	QUANT	0.010000	E&stimated z (ohms)								
PSTATMODEL	IQUANT	6	Pstat Model								
PSTATSECTION	LABEL	42167	Pstat Section								
PSTATSERIALNO	LABEL	42167	Pstat Serial Number								
CTRLMODE	IQUANT	0	Control Mode								
ELECTROMETER	IQUANT	0	RE=0 or CS=1								
IESTAB	IQUANT	0	I/E Stability								
CASPEED	IQUANT	4	Control Amp Speed								
CONVENTION	IQUANT	1	Current Convention								
ICHRANGE	IQUANT	2	Ich Range								
ICHRANGEMODE	TOGGLE	F	Ich Auto Range								
ICHOFFSETENABLE	TOGGLE	T	Ich Offest Enable								
ICHOFFSET	QUANT	0.000000	Ich Offset (V)								
ICHFILTER	IQUANT	2	Ich Filter								
VCHRANGE	IQUANT	2	Vch Range								
VCHRANGEMODE	TOGGLE	F	Vch Auto Range								
VCHOFFSETENABLE	TOGGLE	T	Vch Offeset Enable								
VCHOFFSET	QUANT	0.000000	Ich Offset (V)								
VCHFILTER	IQUANT	2	Vch filter								
ACHRANGE	IQUANT	2	Ach range								
ACHOFFSETENABLE	TOGGLE	F	Ach Offset Enable								
ACHOFFSET	QUANT	0.000000	Ach Offset (V)								
ACHFILTER	IQUANT	1	Ach Filter								
IERANGELOWERLIMIT	IQUANT	0	I/E Range Lower Limit								
IERANGEMODE	TOGGLE	F	I/E Autorange								
IERANGE	QUANT	13.000000	I/E Range								
POSFEEDENABLE	TOGGLE	F	Positive Feedback IR Comp								
POSFEEDRESISTANCE	QUANT	0.000000	Positive Feedback Resistance (ohm)								
ACHSELECT	IQUANT	0	Ach Select								
SENSECABLEID	IQUANT	14	Sense Cable ID								
DCCALDATE	LABEL	4/17/2024	DC Calibration Date								
ACCALDATE	LABEL	12/21/2023	AC Calibration Date								
THERMOSELECT	IQUANT	0	Thermo Select								
FRAMEWORKVERSION	LABEL	3.5.5.0	Framework Version								
COMPLIANCEVOLTAGE	IQUANT	0	Compliance Voltage								
ZCURVE	TABLE										
	Pt	Time	Freq	Zreal	Zimag	Zsig	Zmod	Zphz	Idc	Vdc	IERange
	#	s	Hz	ohm	ohm	V	ohm	°	A	V	#
	0	0.801194	10007.812500	0.000874	-0.000021	1.000000	0.000874	-1.377465	14.994306	1.464998	13
	1	4.323053	8882.812500	0.000874	-0.000025	1.000000	0.000875	-1.622672	14.994035	1.465006	13
	2	4.327770	7851.562500	0.000876	-0.000028	1.000000	0.000876	-1.853090	14.994188	1.465012	13
	3	4.323483	6960.937500	0.000877	-0.000032	1.000000	0.000878	-2.084281	14.994169	1.465041	13
	4	4.321822	6164.062500	0.000879	-0.000036	1.000000	0.000880	-2.321820	14.994244	1.465047	13
	5	4.322220	5460.937500	0.000881	-0.000039	1.000000	0.000882	-2.563322	14.994284	1.465036	13
	6	0.696623	4851.562500	0.000884	-0.000043	1.000000	0.000885	-2.815676	14.994314	1.465037	13
	7	0.483282	4289.062500	0.000887	-0.000047	1.000000	0.000888	-3.064965	14.994257	1.465038	13
	8	0.703101	3782.487549	0.000890	-0.000051	1.000000	0.000892	-3.308950	14.994417	1.465025	13
	9	0.703239	3364.789551	0.000893	-0.000056	1.000000	0.000895	-3.582147	14.994338	1.465047	13
	10	0.697534	2976.562500	0.000897	-0.000061	1.000000	0.000899	-3.871959	14.994287	1.465024	13
	11	1.123093	2648.437500	0.000901	-0.000065	1.000000	0.000903	-4.133257	14.994110	1.465038	13
	12	0.488437	2343.750000	0.000905	-0.000070	1.000000	0.000907	-4.403077	14.994170	1.465011	13
	13	0.706822	2065.284668	0.000909	-0.000075	1.000000	0.000913	-4.705613	14.994352	1.465024	13
	14	0.703233	1833.230103	0.000914	-0.000080	1.000000	0.000918	-5.026321	14.994328	1.465032	13
	15	0.710059	1631.433838	0.000919	-0.000085	1.000000	0.000923	-5.296838	14.994322	1.465047	13
	16	0.495673	1433.555908	0.000926	-0.000092	1.000000	0.000930	-5.660203	14.994595	1.465065	13
	17	0.917811	1276.299438	0.000930	-0.000098	1.000000	0.000936	-6.003036	14.994320	1.465016	13
	18	0.926758	1125.919067	0.000937	-0.000104	1.000000	0.000943	-6.341334	14.994292	1.464999	13
	19	0.487555	997.834106	0.000944	-0.000111	1.000000	0.000951	-6.721395	14.994170	1.465034	13
	20	0.495860	887.439331	0.000951	-0.000118	1.000000	0.000958	-7.092628	14.994379	1.465030	13
	21	0.729191	781.250000	0.000959	-0.000126	1.000000	0.000967	-7.506229	14.994575	1.465047	13
	22	0.504408	691.964294	0.000967	-0.000134	1.000000	0.000976	-7.913490	14.994583	1.465001	13
	23	0.935411	614.381104	0.000975	-0.000143	1.000000	0.000985	-8.316400	14.994352	1.464979	13
	24	0.740971	547.605164	0.000983	-0.000151	1.000000	0.000995	-8.736176	14.994761	1.465100	13
	25	0.492391	482.536774	0.000993	-0.000161	1.000000	0.001006	-9.209036	14.993228	1.465023	13
	26	0.499458	428.185089	0.001003	-0.000171	1.000000	0.001017	-9.685495	14.993278	1.465037	13
	27	0.730900	379.464294	0.001013	-0.000182	1.000000	0.001029	-10.184037	14.993382	1.464977	13
	28	0.504852	334.821442	0.001024	-0.000194	1.000000	0.001043	-10.720159	14.993381	1.465069	13
	29	0.709453	298.713226	0.001035	-0.000206	1.000000	0.001056	-11.241955	14.993443	1.464997	13
	30	1.045682	262.661652	0.001049	-0.000220	1.000000	0.001071	-11.854852	14.993428	1.465042	13
	31	0.994852	234.375000	0.001061	-0.000234	1.000000	0.001087	-12.430158	14.993468	1.465020	13
	32	0.491990	206.801468	0.001076	-0.000250	1.000000	0.001105	-13.088097	14.993382	1.465002	13
	33	0.647514	183.423920	0.001091	-0.000267	1.000000	0.001123	-13.740975	14.993756	1.465007	13
	34	0.704528	162.438110	0.001108	-0.000285	1.000000	0.001144	-14.429583	14.993593	1.464978	13
	35	0.834436	143.914474	0.001127	-0.000305	1.000000	0.001167	-15.132822	14.993264	1.465036	13
	36	0.717548	127.180237	0.001147	-0.000326	1.000000	0.001193	-15.852722	14.993361	1.464947	13
	37	0.499424	112.680290	0.001170	-0.000348	1.000000	0.001221	-16.556358	14.993359	1.464985	13
	38	0.457053	100.160255	0.001194	-0.000370	1.000000	0.001250	-17.228107	14.993650	1.464967	13
	39	0.958471	88.778412	0.001221	-0.000394	1.000000	0.001283	-17.876755	14.993361	1.465028	13
	40	0.629837	78.649330	0.001251	-0.000419	1.000000	0.001319	-18.502455	14.993557	1.464949	13
	41	0.918283	69.616333	0.001284	-0.000444	1.000000	0.001359	-19.065371	14.993561	1.464985	13
	42	0.450561	61.677631	0.001320	-0.000469	1.000000	0.001401	-19.572763	14.993138	1.464928	13
	43	0.498585	54.505817	0.001360	-0.000495	1.000000	0.001447	-19.997372	14.993594	1.464985	13
	44	0.801159	48.491379	0.001400	-0.000519	1.000000	0.001493	-20.319963	14.993608	1.464921	13
	45	0.897268	42.873474	0.001446	-0.000543	1.000000	0.001545	-20.577274	14.993899	1.464967	13
	46	1.714363	38.006756	0.001494	-0.000566	1.000000	0.001597	-20.736399	14.993568	1.464957	13
	47	0.771439	33.642345	0.001545	-0.000587	1.000000	0.001653	-20.798016	14.993707	1.464900	13
	48	0.460083	29.793432	0.001600	-0.000607	1.000000	0.001712	-20.781218	14.993644	1.464923	13
	49	0.512459	26.334269	0.001658	-0.000626	1.000000	0.001772	-20.673676	14.994389	1.464865	13
	50	0.696739	23.437500	0.001714	-0.000640	1.000000	0.001830	-20.461763	14.993647	1.464876	13
	51	0.152557	20.741150	0.001896	-0.000548	1.000000	0.001974	-16.118578	14.995610	1.465623	13
	52	0.219652	18.310547	0.001899	-0.000608	1.000000	0.001994	-17.769304	14.994485	1.465176	13
	53	0.301172	16.276043	0.001946	-0.000631	1.000000	0.002046	-17.971035	14.994208	1.464952	13
	54	0.335099	14.378834	0.002010	-0.000636	1.000000	0.002108	-17.563564	14.994375	1.464949	13
	55	0.294200	12.737772	0.002091	-0.000616	1.000000	0.002180	-16.403288	14.994505	1.464982	13
	56	0.322721	11.268029	0.002156	-0.000608	1.000000	0.002240	-15.744599	14.994079	1.464954	13
	57	0.355142	10.016026	0.002217	-0.000600	1.000000	0.002297	-15.138398	14.994297	1.464999	13
	58	0.392368	8.877841	0.002281	-0.000583	1.000000	0.002354	-14.335105	14.993938	1.464888	13
	59	0.438163	7.864933	0.002335	-0.000563	1.000000	0.002402	-13.559443	14.994223	1.464829	13
	60	0.916658	6.975446	0.002377	-0.000575	1.000000	0.002445	-13.608619	14.993922	1.464678	13
	61	0.867557	6.151575	0.002431	-0.000542	1.000000	0.002491	-12.555917	14.993986	1.464646	13
	62	1.333323	5.476051	0.002477	-0.000527	1.000000	0.002533	-12.004126	14.993900	1.464593	13
	63	1.294322	4.842459	0.002525	-0.000492	1.000000	0.002572	-11.029614	14.993907	1.464561	13
	64	1.218470	4.300459	0.002566	-0.000459	1.000000	0.002607	-10.139241	14.993992	1.464482	13
	65	1.373487	3.792476	0.002601	-0.000427	1.000000	0.002635	-9.332327	14.994040	1.464557	13
	66	1.541521	3.367457	0.002632	-0.000396	1.000000	0.002662	-8.554176	14.993832	1.464473	13
	67	2.062881	2.989477	0.002658	-0.000368	1.000000	0.002683	-7.885140	14.993816	1.464485	13
	68	1.955034	2.639358	0.002683	-0.000338	1.000000	0.002704	-7.188118	14.994102	1.464482	13
	69	2.616706	2.343750	0.002692	-0.000301	1.000000	0.002709	-6.388457	15.040445	1.464648	13
	70	4.890476	2.068623	0.002719	-0.000284	1.000000	0.002734	-5.957436	15.014305	1.464528	13
	71	3.891304	1.825351	0.002734	-0.000253	1.000000	0.002745	-5.297421	15.017363	1.464623	13
	72	5.596014	1.625347	0.002745	-0.000232	1.000000	0.002754	-4.836985	15.007749	1.464651	13
	73	4.233379	1.436121	0.002762	-0.000212	1.000000	0.002770	-4.389700	15.011049	1.464721	13
	74	3.972587	1.276552	0.002767	-0.000195	1.000000	0.002774	-4.026026	15.010668	1.464752	13
	75	4.493954	1.126803	0.002780	-0.000177	1.000000	0.002785	-3.639337	15.006758	1.464767	13
	76	10.066304	0.999041	0.002786	-0.000162	1.000000	0.002790	-3.337311	14.998373	1.464757	13
	77	4.581613	0.883767	0.002795	-0.000146	1.000000	0.002798	-2.991060	15.004553	1.464796	13
	78	6.428597	0.784650	0.002798	-0.000134	1.000000	0.002801	-2.747737	15.000144	1.464738	13
	79	5.802679	0.696301	0.002806	-0.000127	1.000000	0.002809	-2.600982	15.000668	1.464688	13
	80	6.541598	0.616776	0.002815	-0.000108	1.000000	0.002817	-2.188161	14.998828	1.464658	13
	81	7.367096	0.547094	0.002822	-0.000100	1.000000	0.002823	-2.038687	14.997924	1.464620	13
	82	8.329332	0.483447	0.002816	-0.000095	1.000000	0.002818	-1.934293	14.997041	1.464572	13
	83	11.691791	0.429730	0.002821	-0.000079	1.000000	0.002822	-1.602658	14.995788	1.464560	13
	84	10.571839	0.380417	0.002825	-0.000077	1.000000	0.002826	-1.556358	14.995920	1.464615	13
	85	14.924075	0.336311	0.002823	-0.000063	1.000000	0.002824	-1.269564	14.995068	1.464791	13
	86	13.501633	0.297506	0.002826	-0.000057	1.000000	0.002827	-1.158609	14.995139	1.464901	13
	87	15.225579	0.263698	0.002836	-0.000051	1.000000	0.002836	-1.021701	14.994861	1.464905	13
	88	17.122498	0.234375	0.002831	-0.000039	1.000000	0.002831	-0.788875	14.994452	1.464871	13
	89	19.341936	0.207412	0.002822	-0.000041	1.000000	0.002823	-0.828398	14.994199	1.464778	13
