EXPLAIN											
TAG	GALVEIS										
TITLE	LABEL	GI-GALVEIS	Test &Identifier								
DATE	LABEL	2024-06-24	Date								
TIME	LABEL	7:01:41 PM	Time								
NOTES	NOTES		&Notes...								
	FCATS v19.0.1f5										
PSTAT	PSTAT	REF3000-42167	Potentiostat								
IDCREQ	QUANT	25.000000	DC & Current (A)								
FREQINIT	QUANT	10000.000000	Initial Freq&q. (Hz)								
FREQFINAL	QUANT	0.200000	Final Fre&q. (Hz)								
PTSPERDEC	QUANT	19.000000	Points/&decade								
IACREQ	QUANT	3.000000	AC & Current (A rms)								
AREA	QUANT	50.000000	&Area(cm^2)								
CONDIT	TWOPARAM	F	N/A	N/A	Conditionin&g	Time(s)	E(V)				
DELAY	TWOPARAM	F	N/A	N/A	Init. &Delay	Time(s)	Stab.(mV/s)				
SPEED	SELECTOR	Low Noise	&Optimizer for:								
ZGUESS	QUANT	0.010000	E&stimated z (ohms)								
PSTATMODEL	IQUANT	6	Pstat Model								
PSTATSECTION	LABEL	42167	Pstat Section								
PSTATSERIALNO	LABEL	42167	Pstat Serial Number								
CTRLMODE	IQUANT	0	Control Mode								
ELECTROMETER	IQUANT	0	RE=0 or CS=1								
IESTAB	IQUANT	0	I/E Stability								
CASPEED	IQUANT	4	Control Amp Speed								
CONVENTION	IQUANT	1	Current Convention								
ICHRANGE	IQUANT	2	Ich Range								
ICHRANGEMODE	TOGGLE	F	Ich Auto Range								
ICHOFFSETENABLE	TOGGLE	T	Ich Offest Enable								
ICHOFFSET	QUANT	0.000000	Ich Offset (V)								
ICHFILTER	IQUANT	2	Ich Filter								
VCHRANGE	IQUANT	2	Vch Range								
VCHRANGEMODE	TOGGLE	F	Vch Auto Range								
VCHOFFSETENABLE	TOGGLE	T	Vch Offeset Enable								
VCHOFFSET	QUANT	0.000000	Ich Offset (V)								
VCHFILTER	IQUANT	2	Vch filter								
ACHRANGE	IQUANT	2	Ach range								
ACHOFFSETENABLE	TOGGLE	F	Ach Offset Enable								
ACHOFFSET	QUANT	0.000000	Ach Offset (V)								
ACHFILTER	IQUANT	1	Ach Filter								
IERANGELOWERLIMIT	IQUANT	0	I/E Range Lower Limit								
IERANGEMODE	TOGGLE	F	I/E Autorange								
IERANGE	QUANT	13.000000	I/E Range								
POSFEEDENABLE	TOGGLE	F	Positive Feedback IR Comp								
POSFEEDRESISTANCE	QUANT	0.000000	Positive Feedback Resistance (ohm)								
ACHSELECT	IQUANT	0	Ach Select								
SENSECABLEID	IQUANT	14	Sense Cable ID								
DCCALDATE	LABEL	4/17/2024	DC Calibration Date								
ACCALDATE	LABEL	12/21/2023	AC Calibration Date								
THERMOSELECT	IQUANT	0	Thermo Select								
FRAMEWORKVERSION	LABEL	3.5.5.0	Framework Version								
COMPLIANCEVOLTAGE	IQUANT	0	Compliance Voltage								
ZCURVE	TABLE										
	Pt	Time	Freq	Zreal	Zimag	Zsig	Zmod	Zphz	Idc	Vdc	IERange
	#	s	Hz	ohm	ohm	V	ohm	°	A	V	#
	0	1.011178	10007.812500	0.000875	-0.000020	1.000000	0.000875	-1.300993	24.993971	1.487761	13
	1	4.322659	8882.812500	0.000874	-0.000024	1.000000	0.000874	-1.541423	24.994043	1.487755	13
	2	4.322046	7851.562500	0.000875	-0.000027	1.000000	0.000875	-1.766291	24.994024	1.487747	13
	3	4.323550	6960.937500	0.000876	-0.000030	1.000000	0.000877	-1.989729	24.993950	1.487767	13
	4	4.323086	6164.062500	0.000878	-0.000034	1.000000	0.000879	-2.217641	24.994051	1.487788	13
	5	4.323769	5460.937500	0.000880	-0.000038	1.000000	0.000881	-2.446904	24.994019	1.487828	13
	6	4.322062	4851.562500	0.000882	-0.000041	1.000000	0.000883	-2.690529	24.994068	1.487925	13
	7	4.323532	4289.062500	0.000885	-0.000045	1.000000	0.000886	-2.934267	24.994106	1.487974	13
	8	4.364978	3782.487549	0.000888	-0.000049	1.000000	0.000890	-3.176342	24.994350	1.488035	13
	9	4.365952	3364.789551	0.000892	-0.000053	1.000000	0.000893	-3.428202	24.994308	1.488139	13
	10	4.323990	2976.562500	0.000895	-0.000058	1.000000	0.000897	-3.695257	24.994186	1.488258	13
	11	0.484385	2648.437500	0.000899	-0.000062	1.000000	0.000901	-3.975807	24.994160	1.488324	13
	12	0.487042	2343.750000	0.000903	-0.000066	1.000000	0.000906	-4.210395	24.994183	1.488329	13
	13	0.702182	2065.284668	0.000908	-0.000072	1.000000	0.000910	-4.522109	24.994144	1.488356	13
	14	0.490025	1833.230103	0.000912	-0.000077	1.000000	0.000916	-4.835868	24.994164	1.488376	13
	15	0.927744	1631.433838	0.000917	-0.000082	1.000000	0.000921	-5.087459	24.994005	1.488359	13
	16	0.497016	1433.555908	0.000923	-0.000088	1.000000	0.000927	-5.428423	24.994263	1.488388	13
	17	0.919567	1276.299438	0.000928	-0.000093	1.000000	0.000933	-5.751488	24.994343	1.488446	13
	18	0.708763	1125.919067	0.000935	-0.000100	1.000000	0.000940	-6.098602	24.994104	1.488477	13
	19	0.919524	997.834106	0.000941	-0.000106	1.000000	0.000947	-6.429193	24.994204	1.488475	13
	20	0.496728	887.439331	0.000947	-0.000113	1.000000	0.000954	-6.781166	24.994297	1.488474	13
	21	0.504697	781.250000	0.000955	-0.000120	1.000000	0.000962	-7.193570	24.994564	1.488458	13
	22	0.507426	691.964294	0.000963	-0.000127	1.000000	0.000971	-7.544495	24.994640	1.488477	13
	23	0.497326	614.381104	0.000971	-0.000135	1.000000	0.000980	-7.938619	24.994473	1.488479	13
	24	0.969355	547.605164	0.000979	-0.000144	1.000000	0.000989	-8.351054	24.994713	1.488512	13
	25	0.926942	482.536774	0.000988	-0.000153	1.000000	0.001000	-8.803370	24.993149	1.488535	13
	26	0.721720	428.185089	0.000998	-0.000162	1.000000	0.001011	-9.245966	24.993052	1.488552	13
	27	0.505254	379.464294	0.001008	-0.000173	1.000000	0.001023	-9.716060	24.993221	1.488546	13
	28	0.953337	334.821442	0.001019	-0.000184	1.000000	0.001036	-10.219782	24.993277	1.488539	13
	29	0.492939	298.713226	0.001030	-0.000195	1.000000	0.001048	-10.704571	24.993046	1.488642	13
	30	0.452097	262.661652	0.001043	-0.000208	1.000000	0.001064	-11.279778	24.993225	1.488605	13
	31	0.763973	234.375000	0.001056	-0.000221	1.000000	0.001078	-11.807179	24.993170	1.488612	13
	32	0.496784	206.801468	0.001070	-0.000236	1.000000	0.001096	-12.411014	24.993189	1.488653	13
	33	0.450016	183.423920	0.001086	-0.000251	1.000000	0.001114	-13.001642	24.993486	1.488668	13
	34	0.703550	162.438110	0.001103	-0.000267	1.000000	0.001135	-13.622087	24.993311	1.488644	13
	35	0.445174	143.914474	0.001121	-0.000285	1.000000	0.001157	-14.237440	24.993221	1.488628	13
	36	0.497416	127.180237	0.001142	-0.000303	1.000000	0.001182	-14.870393	24.993341	1.488638	13
	37	0.501443	112.680290	0.001165	-0.000322	1.000000	0.001208	-15.477279	24.993193	1.488629	13
	38	0.455720	100.160255	0.001189	-0.000342	1.000000	0.001237	-16.037840	24.993460	1.488686	13
	39	1.182471	88.778412	0.001216	-0.000362	1.000000	0.001269	-16.564291	24.993374	1.488680	13
	40	0.629198	78.649330	0.001246	-0.000382	1.000000	0.001303	-17.047501	24.993546	1.488676	13
	41	0.487134	69.616333	0.001279	-0.000402	1.000000	0.001341	-17.465446	24.993263	1.488690	13
	42	0.447178	61.677631	0.001315	-0.000422	1.000000	0.001381	-17.809353	24.993029	1.488646	13
	43	0.497711	54.505817	0.001354	-0.000441	1.000000	0.001424	-18.040066	24.993225	1.488703	13
	44	0.613150	48.491379	0.001394	-0.000458	1.000000	0.001467	-18.187809	24.993351	1.488663	13
	45	0.897152	42.873474	0.001439	-0.000473	1.000000	0.001515	-18.206230	24.993307	1.488686	13
	46	1.241259	38.006756	0.001485	-0.000486	1.000000	0.001563	-18.123510	24.993305	1.488675	13
	47	0.770003	33.642345	0.001534	-0.000496	1.000000	0.001612	-17.920778	24.993355	1.488692	13
	48	1.064065	29.793432	0.001585	-0.000503	1.000000	0.001663	-17.599043	24.993649	1.488707	13
	49	0.512857	26.334269	0.001637	-0.000506	1.000000	0.001714	-17.170324	24.994034	1.488717	13
	50	0.270791	23.437500	0.001687	-0.000506	1.000000	0.001761	-16.708778	24.992872	1.488672	13
	51	0.152626	20.741150	0.001809	-0.000419	1.000000	0.001857	-13.035498	24.994976	1.489090	13
	52	0.164243	18.310547	0.001862	-0.000410	1.000000	0.001907	-12.432572	24.994761	1.488984	13
	53	0.300416	16.276043	0.001860	-0.000458	1.000000	0.001916	-13.836090	24.993912	1.488772	13
	54	0.263804	14.378834	0.001915	-0.000432	1.000000	0.001963	-12.701829	24.994209	1.488902	13
	55	0.450452	12.737772	0.001947	-0.000436	1.000000	0.001995	-12.610501	24.993881	1.488772	13
	56	0.411221	11.268029	0.001995	-0.000414	1.000000	0.002037	-11.725015	24.993690	1.488745	13
	57	0.355378	10.016026	0.002039	-0.000378	1.000000	0.002073	-10.500654	24.994066	1.488810	13
	58	0.393271	8.877841	0.002067	-0.000355	1.000000	0.002098	-9.753148	24.993729	1.488759	13
	59	0.693133	7.864933	0.002090	-0.000346	1.000000	0.002118	-9.405573	24.994009	1.488719	13
	60	1.203067	6.975446	0.002112	-0.000328	1.000000	0.002138	-8.821784	24.993761	1.488699	13
	61	0.868007	6.151575	0.002137	-0.000301	1.000000	0.002158	-8.019142	24.993868	1.488730	13
	62	1.152755	5.476051	0.002160	-0.000280	1.000000	0.002178	-7.396687	24.993826	1.488735	13
	63	1.088335	4.842459	0.002179	-0.000255	1.000000	0.002194	-6.679610	24.993738	1.488728	13
	64	1.451179	4.300459	0.002191	-0.000235	1.000000	0.002204	-6.126096	24.993849	1.488712	13
	65	1.373385	3.792476	0.002205	-0.000217	1.000000	0.002215	-5.617315	24.993921	1.488748	13
	66	1.836854	3.367457	0.002218	-0.000200	1.000000	0.002227	-5.148970	24.993628	1.488754	13
	67	1.729481	2.989477	0.002229	-0.000183	1.000000	0.002236	-4.703758	24.993650	1.488747	13
	68	1.950054	2.639358	0.002240	-0.000168	1.000000	0.002246	-4.293177	24.993916	1.488753	13
	69	2.615981	2.343750	0.002239	-0.000150	1.000000	0.002244	-3.842323	25.032665	1.488847	13
	70	2.958133	2.068623	0.002245	-0.000133	1.000000	0.002249	-3.401200	25.025364	1.488831	13
	71	2.796762	1.825351	0.002253	-0.000128	1.000000	0.002257	-3.248807	25.023979	1.488833	13
	72	5.593863	1.625347	0.002260	-0.000116	1.000000	0.002263	-2.935981	25.005510	1.488787	13
	73	3.538627	1.436121	0.002263	-0.000108	1.000000	0.002266	-2.721490	25.012030	1.488803	13
	74	6.321742	1.276552	0.002272	-0.000099	1.000000	0.002274	-2.503810	25.001717	1.488768	13
	75	4.493124	1.126803	0.002275	-0.000096	1.000000	0.002277	-2.414637	25.004534	1.488797	13
	76	7.061922	0.999041	0.002280	-0.000090	1.000000	0.002282	-2.250094	24.999437	1.488805	13
	77	4.582040	0.883767	0.002289	-0.000083	1.000000	0.002290	-2.084121	25.002743	1.488871	13
	78	6.429281	0.784650	0.002292	-0.000073	1.000000	0.002293	-1.817342	24.999002	1.488955	13
	79	7.236794	0.696301	0.002291	-0.000068	1.000000	0.002292	-1.688372	24.997915	1.489070	13
	80	8.162474	0.616776	0.002294	-0.000063	1.000000	0.002295	-1.576854	24.996752	1.489170	13
	81	9.194076	0.547094	0.002300	-0.000059	1.000000	0.002301	-1.472975	24.996147	1.489280	13
	82	8.330788	0.483447	0.002306	-0.000051	1.000000	0.002306	-1.276839	24.996464	1.489347	13
	83	9.365217	0.429730	0.002308	-0.000048	1.000000	0.002309	-1.183207	24.995861	1.489400	13
	84	10.570349	0.380417	0.002311	-0.000043	1.000000	0.002311	-1.066357	24.995327	1.489411	13
	85	11.951271	0.336311	0.002314	-0.000037	1.000000	0.002315	-0.923891	24.995001	1.489414	13
	86	16.862041	0.297506	0.002313	-0.000034	1.000000	0.002313	-0.848031	24.994448	1.489409	13
	87	19.022112	0.263698	0.002308	-0.000030	1.000000	0.002309	-0.751367	24.994301	1.489586	13
	88	21.392632	0.234375	0.002308	-0.000025	1.000000	0.002308	-0.630726	24.993971	1.489871	13
	89	19.342464	0.207412	0.002312	-0.000023	1.000000	0.002312	-0.572511	24.994038	1.489943	13
