EXPLAIN											
TAG	GALVEIS										
TITLE	LABEL	GI-GALVEIS	Test &Identifier								
DATE	LABEL	2024-06-22	Date								
TIME	LABEL	2:33:36 AM	Time								
NOTES	NOTES		&Notes...								
	FCATS v19.0.1f5										
PSTAT	PSTAT	REF3000-42167	Potentiostat								
IDCREQ	QUANT	25.000000	DC & Current (A)								
FREQINIT	QUANT	10000.000000	Initial Freq&q. (Hz)								
FREQFINAL	QUANT	0.200000	Final Fre&q. (Hz)								
PTSPERDEC	QUANT	19.000000	Points/&decade								
IACREQ	QUANT	3.000000	AC & Current (A rms)								
AREA	QUANT	50.000000	&Area(cm^2)								
CONDIT	TWOPARAM	F	N/A	N/A	Conditionin&g	Time(s)	E(V)				
DELAY	TWOPARAM	F	N/A	N/A	Init. &Delay	Time(s)	Stab.(mV/s)				
SPEED	SELECTOR	Low Noise	&Optimizer for:								
ZGUESS	QUANT	0.010000	E&stimated z (ohms)								
PSTATMODEL	IQUANT	6	Pstat Model								
PSTATSECTION	LABEL	42167	Pstat Section								
PSTATSERIALNO	LABEL	42167	Pstat Serial Number								
CTRLMODE	IQUANT	0	Control Mode								
ELECTROMETER	IQUANT	0	RE=0 or CS=1								
IESTAB	IQUANT	0	I/E Stability								
CASPEED	IQUANT	4	Control Amp Speed								
CONVENTION	IQUANT	1	Current Convention								
ICHRANGE	IQUANT	2	Ich Range								
ICHRANGEMODE	TOGGLE	F	Ich Auto Range								
ICHOFFSETENABLE	TOGGLE	T	Ich Offest Enable								
ICHOFFSET	QUANT	0.000000	Ich Offset (V)								
ICHFILTER	IQUANT	2	Ich Filter								
VCHRANGE	IQUANT	2	Vch Range								
VCHRANGEMODE	TOGGLE	F	Vch Auto Range								
VCHOFFSETENABLE	TOGGLE	T	Vch Offeset Enable								
VCHOFFSET	QUANT	0.000000	Ich Offset (V)								
VCHFILTER	IQUANT	2	Vch filter								
ACHRANGE	IQUANT	2	Ach range								
ACHOFFSETENABLE	TOGGLE	F	Ach Offset Enable								
ACHOFFSET	QUANT	0.000000	Ach Offset (V)								
ACHFILTER	IQUANT	1	Ach Filter								
IERANGELOWERLIMIT	IQUANT	0	I/E Range Lower Limit								
IERANGEMODE	TOGGLE	F	I/E Autorange								
IERANGE	QUANT	13.000000	I/E Range								
POSFEEDENABLE	TOGGLE	F	Positive Feedback IR Comp								
POSFEEDRESISTANCE	QUANT	0.000000	Positive Feedback Resistance (ohm)								
ACHSELECT	IQUANT	0	Ach Select								
SENSECABLEID	IQUANT	14	Sense Cable ID								
DCCALDATE	LABEL	4/17/2024	DC Calibration Date								
ACCALDATE	LABEL	12/21/2023	AC Calibration Date								
THERMOSELECT	IQUANT	0	Thermo Select								
FRAMEWORKVERSION	LABEL	3.5.5.0	Framework Version								
COMPLIANCEVOLTAGE	IQUANT	0	Compliance Voltage								
ZCURVE	TABLE										
	Pt	Time	Freq	Zreal	Zimag	Zsig	Zmod	Zphz	Idc	Vdc	IERange
	#	s	Hz	ohm	ohm	V	ohm	°	A	V	#
	0	1.018528	10007.812500	0.002249	-0.000034	1.000000	0.002249	-0.868575	24.993931	1.572985	13
	1	4.323634	8882.812500	0.002248	-0.000036	1.000000	0.002248	-0.925296	24.994087	1.573102	13
	2	4.325014	7851.562500	0.002250	-0.000038	1.000000	0.002251	-0.974032	24.994238	1.573274	13
	3	4.322517	6960.937500	0.002252	-0.000041	1.000000	0.002252	-1.033563	24.994141	1.573321	13
	4	4.322789	6164.062500	0.002254	-0.000043	1.000000	0.002255	-1.093081	24.994223	1.573443	13
	5	4.323590	5460.937500	0.002257	-0.000046	1.000000	0.002258	-1.159383	24.994240	1.573519	13
	6	4.322752	4851.562500	0.002260	-0.000048	1.000000	0.002261	-1.222682	24.994205	1.573594	13
	7	4.322704	4289.062500	0.002264	-0.000051	1.000000	0.002264	-1.299057	24.994221	1.573704	13
	8	4.364974	3782.487549	0.002266	-0.000055	1.000000	0.002267	-1.381191	24.994360	1.573735	13
	9	4.366062	3364.789551	0.002269	-0.000058	1.000000	0.002270	-1.460052	24.994446	1.573827	13
	10	4.324613	2976.562500	0.002273	-0.000061	1.000000	0.002273	-1.542617	24.994036	1.573818	13
	11	1.976299	2648.437500	0.002276	-0.000065	1.000000	0.002277	-1.630466	24.994093	1.573906	13
	12	0.489726	2343.750000	0.002281	-0.000069	1.000000	0.002282	-1.721738	24.994150	1.573929	13
	13	0.703434	2065.284668	0.002285	-0.000073	1.000000	0.002286	-1.835380	24.994404	1.573894	13
	14	0.487501	1833.230103	0.002289	-0.000078	1.000000	0.002291	-1.950147	24.994453	1.573898	13
	15	0.928059	1631.433838	0.002294	-0.000082	1.000000	0.002296	-2.039262	24.993895	1.573903	13
	16	1.156081	1433.555908	0.002300	-0.000087	1.000000	0.002302	-2.164890	24.994314	1.573939	13
	17	0.487213	1276.299438	0.002306	-0.000092	1.000000	0.002308	-2.276487	24.994263	1.573965	13
	18	0.928282	1125.919067	0.002312	-0.000098	1.000000	0.002314	-2.423779	24.994123	1.573959	13
	19	0.487550	997.834106	0.002318	-0.000104	1.000000	0.002320	-2.569479	24.994186	1.573917	13
	20	0.496966	887.439331	0.002325	-0.000110	1.000000	0.002327	-2.719826	24.994616	1.573930	13
	21	0.505125	781.250000	0.002333	-0.000117	1.000000	0.002336	-2.871120	24.994358	1.573943	13
	22	0.504535	691.964294	0.002340	-0.000123	1.000000	0.002343	-3.019838	24.994551	1.573949	13
	23	0.527399	614.381104	0.002349	-0.000130	1.000000	0.002352	-3.179453	24.994282	1.573977	13
	24	0.536111	547.605164	0.002357	-0.000137	1.000000	0.002361	-3.337428	24.994633	1.573980	13
	25	0.500661	482.536774	0.002366	-0.000146	1.000000	0.002371	-3.534595	24.993139	1.573994	13
	26	0.722358	428.185089	0.002377	-0.000154	1.000000	0.002382	-3.715559	24.992994	1.574017	13
	27	0.952026	379.464294	0.002387	-0.000163	1.000000	0.002393	-3.904885	24.993153	1.574034	13
	28	0.504960	334.821442	0.002399	-0.000172	1.000000	0.002405	-4.104766	24.993185	1.574036	13
	29	0.501029	298.713226	0.002411	-0.000181	1.000000	0.002417	-4.296083	24.993118	1.574039	13
	30	0.452639	262.661652	0.002424	-0.000191	1.000000	0.002432	-4.513092	24.993240	1.574043	13
	31	0.760277	234.375000	0.002437	-0.000201	1.000000	0.002445	-4.712991	24.993185	1.574049	13
	32	0.709973	206.801468	0.002452	-0.000212	1.000000	0.002461	-4.936281	24.993113	1.574021	13
	33	0.841713	183.423920	0.002467	-0.000223	1.000000	0.002477	-5.154975	24.993420	1.574034	13
	34	0.918042	162.438110	0.002484	-0.000234	1.000000	0.002495	-5.377504	24.993320	1.574054	13
	35	0.445578	143.914474	0.002501	-0.000245	1.000000	0.002513	-5.604466	24.992939	1.574061	13
	36	0.495945	127.180237	0.002521	-0.000257	1.000000	0.002534	-5.830939	24.993206	1.574068	13
	37	0.500692	112.680290	0.002540	-0.000270	1.000000	0.002554	-6.058746	24.993092	1.574015	13
	38	0.456178	100.160255	0.002561	-0.000281	1.000000	0.002576	-6.270969	24.993416	1.574020	13
	39	0.732955	88.778412	0.002583	-0.000293	1.000000	0.002599	-6.481666	24.993059	1.574053	13
	40	0.819356	78.649330	0.002607	-0.000305	1.000000	0.002624	-6.684797	24.993477	1.574076	13
	41	0.702280	69.616333	0.002631	-0.000318	1.000000	0.002650	-6.891526	24.993412	1.574091	13
	42	0.446338	61.677631	0.002657	-0.000330	1.000000	0.002678	-7.080239	24.993383	1.574077	13
	43	0.716730	54.505817	0.002686	-0.000342	1.000000	0.002707	-7.248925	24.993206	1.574108	13
	44	0.613756	48.491379	0.002713	-0.000353	1.000000	0.002736	-7.410015	24.993492	1.574128	13
	45	0.687603	42.873474	0.002744	-0.000364	1.000000	0.002768	-7.565001	24.992966	1.574212	13
	46	0.767973	38.006756	0.002776	-0.000375	1.000000	0.002801	-7.691054	24.993586	1.574279	13
	47	0.794278	33.642345	0.002809	-0.000385	1.000000	0.002835	-7.811354	24.993805	1.574304	13
	48	0.467314	29.793432	0.002842	-0.000395	1.000000	0.002870	-7.911597	24.993362	1.574287	13
	49	0.514203	26.334269	0.002878	-0.000404	1.000000	0.002906	-7.984282	24.993248	1.574261	13
	50	0.482330	23.437500	0.002914	-0.000410	1.000000	0.002942	-8.016713	24.992970	1.574244	13
	51	0.152602	20.741150	0.003021	-0.000352	1.000000	0.003041	-6.654442	24.994993	1.574733	13
	52	0.165766	18.310547	0.003055	-0.000358	1.000000	0.003076	-6.673716	24.994940	1.574639	13
	53	0.301242	16.276043	0.003053	-0.000399	1.000000	0.003079	-7.453205	24.994213	1.574399	13
	54	0.336026	14.378834	0.003094	-0.000400	1.000000	0.003120	-7.360106	24.994268	1.574377	13
	55	0.449337	12.737772	0.003128	-0.000403	1.000000	0.003154	-7.337443	24.993988	1.574342	13
	56	0.677232	11.268029	0.003162	-0.000405	1.000000	0.003188	-7.299828	24.993666	1.574281	13
	57	0.454850	10.016026	0.003207	-0.000389	1.000000	0.003231	-6.921363	24.994087	1.574302	13
	58	0.395208	8.877841	0.003250	-0.000372	1.000000	0.003272	-6.531799	24.993738	1.574324	13
	59	0.819188	7.864933	0.003274	-0.000379	1.000000	0.003296	-6.599182	24.993933	1.574253	13
	60	0.772313	6.975446	0.003309	-0.000366	1.000000	0.003329	-6.305116	24.993752	1.574244	13
	61	0.869598	6.151575	0.003342	-0.000353	1.000000	0.003360	-6.034811	24.993950	1.574242	13
	62	1.516493	5.476051	0.003368	-0.000345	1.000000	0.003385	-5.856351	24.993893	1.574198	13
	63	2.328013	4.842459	0.003394	-0.000333	1.000000	0.003411	-5.595488	24.993876	1.574170	13
	64	1.217871	4.300459	0.003424	-0.000314	1.000000	0.003438	-5.235111	24.993986	1.574215	13
	65	1.375582	3.792476	0.003449	-0.000300	1.000000	0.003462	-4.973307	24.994040	1.574285	13
	66	1.838376	3.367457	0.003471	-0.000287	1.000000	0.003483	-4.732043	24.993687	1.574306	13
	67	1.728230	2.989477	0.003491	-0.000273	1.000000	0.003502	-4.474342	24.993723	1.574284	13
	68	1.973511	2.639358	0.003512	-0.000261	1.000000	0.003521	-4.248156	24.994049	1.574310	13
	69	3.043229	2.343750	0.003522	-0.000245	1.000000	0.003530	-3.984271	25.028324	1.574451	13
	70	2.957015	2.068623	0.003542	-0.000234	1.000000	0.003550	-3.784741	25.025394	1.574486	13
	71	3.890485	1.825351	0.003558	-0.000225	1.000000	0.003566	-3.620446	25.013783	1.574461	13
	72	3.131357	1.625347	0.003573	-0.000213	1.000000	0.003580	-3.415213	25.017649	1.574510	13
	73	4.234046	1.436121	0.003589	-0.000205	1.000000	0.003595	-3.269461	25.008371	1.574521	13
	74	3.974370	1.276552	0.003604	-0.000194	1.000000	0.003609	-3.087358	25.008444	1.574579	13
	75	4.493568	1.126803	0.003616	-0.000187	1.000000	0.003621	-2.966368	25.004589	1.574650	13
	76	7.062226	0.999041	0.003632	-0.000180	1.000000	0.003637	-2.841207	24.999506	1.574694	13
	77	4.581870	0.883767	0.003642	-0.000170	1.000000	0.003646	-2.675667	25.002762	1.574788	13
	78	6.429447	0.784650	0.003656	-0.000163	1.000000	0.003659	-2.552010	24.999273	1.574870	13
	79	7.237110	0.696301	0.003665	-0.000157	1.000000	0.003668	-2.451525	24.997900	1.574932	13
	80	8.163948	0.616776	0.003672	-0.000149	1.000000	0.003675	-2.325232	24.996954	1.574965	13
	81	7.368131	0.547094	0.003686	-0.000144	1.000000	0.003688	-2.234841	24.997116	1.574985	13
	82	8.343799	0.483447	0.003693	-0.000136	1.000000	0.003696	-2.110737	24.996561	1.574996	13
	83	9.364559	0.429730	0.003698	-0.000129	1.000000	0.003700	-2.000933	24.996090	1.574976	13
	84	13.199593	0.380417	0.003703	-0.000124	1.000000	0.003705	-1.925221	24.995075	1.575057	13
	85	14.924610	0.336311	0.003711	-0.000118	1.000000	0.003713	-1.813842	24.994852	1.575186	13
	86	13.500680	0.297506	0.003709	-0.000118	1.000000	0.003710	-1.823196	24.994951	1.575183	13
	87	19.018329	0.263698	0.003715	-0.000108	1.000000	0.003717	-1.671242	24.994492	1.575195	13
	88	17.123037	0.234375	0.003720	-0.000107	1.000000	0.003722	-1.649085	24.994137	1.575146	13
	89	24.161946	0.207412	0.003722	-0.000103	1.000000	0.003724	-1.578393	24.993874	1.575078	13
