EXPLAIN											
TAG	GALVEIS										
TITLE	LABEL	GI-GALVEIS	Test &Identifier								
DATE	LABEL	2024-06-22	Date								
TIME	LABEL	2:40:16 AM	Time								
NOTES	NOTES		&Notes...								
	FCATS v19.0.1f5										
PSTAT	PSTAT	REF3000-42167	Potentiostat								
IDCREQ	QUANT	15.000000	DC & Current (A)								
FREQINIT	QUANT	10000.000000	Initial Freq&q. (Hz)								
FREQFINAL	QUANT	0.200000	Final Fre&q. (Hz)								
PTSPERDEC	QUANT	19.000000	Points/&decade								
IACREQ	QUANT	3.500000	AC & Current (A rms)								
AREA	QUANT	50.000000	&Area(cm^2)								
CONDIT	TWOPARAM	F	N/A	N/A	Conditionin&g	Time(s)	E(V)				
DELAY	TWOPARAM	F	N/A	N/A	Init. &Delay	Time(s)	Stab.(mV/s)				
SPEED	SELECTOR	Low Noise	&Optimizer for:								
ZGUESS	QUANT	0.010000	E&stimated z (ohms)								
PSTATMODEL	IQUANT	6	Pstat Model								
PSTATSECTION	LABEL	42167	Pstat Section								
PSTATSERIALNO	LABEL	42167	Pstat Serial Number								
CTRLMODE	IQUANT	0	Control Mode								
ELECTROMETER	IQUANT	0	RE=0 or CS=1								
IESTAB	IQUANT	0	I/E Stability								
CASPEED	IQUANT	4	Control Amp Speed								
CONVENTION	IQUANT	1	Current Convention								
ICHRANGE	IQUANT	2	Ich Range								
ICHRANGEMODE	TOGGLE	F	Ich Auto Range								
ICHOFFSETENABLE	TOGGLE	T	Ich Offest Enable								
ICHOFFSET	QUANT	0.000000	Ich Offset (V)								
ICHFILTER	IQUANT	2	Ich Filter								
VCHRANGE	IQUANT	2	Vch Range								
VCHRANGEMODE	TOGGLE	F	Vch Auto Range								
VCHOFFSETENABLE	TOGGLE	T	Vch Offeset Enable								
VCHOFFSET	QUANT	0.000000	Ich Offset (V)								
VCHFILTER	IQUANT	2	Vch filter								
ACHRANGE	IQUANT	2	Ach range								
ACHOFFSETENABLE	TOGGLE	F	Ach Offset Enable								
ACHOFFSET	QUANT	0.000000	Ach Offset (V)								
ACHFILTER	IQUANT	1	Ach Filter								
IERANGELOWERLIMIT	IQUANT	0	I/E Range Lower Limit								
IERANGEMODE	TOGGLE	F	I/E Autorange								
IERANGE	QUANT	13.000000	I/E Range								
POSFEEDENABLE	TOGGLE	F	Positive Feedback IR Comp								
POSFEEDRESISTANCE	QUANT	0.000000	Positive Feedback Resistance (ohm)								
ACHSELECT	IQUANT	0	Ach Select								
SENSECABLEID	IQUANT	14	Sense Cable ID								
DCCALDATE	LABEL	4/17/2024	DC Calibration Date								
ACCALDATE	LABEL	12/21/2023	AC Calibration Date								
THERMOSELECT	IQUANT	0	Thermo Select								
FRAMEWORKVERSION	LABEL	3.5.5.0	Framework Version								
COMPLIANCEVOLTAGE	IQUANT	0	Compliance Voltage								
ZCURVE	TABLE										
	Pt	Time	Freq	Zreal	Zimag	Zsig	Zmod	Zphz	Idc	Vdc	IERange
	#	s	Hz	ohm	ohm	V	ohm	°	A	V	#
	0	0.800403	10007.812500	0.002184	-0.000036	1.000000	0.002184	-0.938638	14.994019	1.535217	13
	1	4.321831	8882.812500	0.002181	-0.000037	1.000000	0.002181	-0.981555	14.994187	1.535180	13
	2	4.322469	7851.562500	0.002182	-0.000040	1.000000	0.002182	-1.043588	14.994112	1.535232	13
	3	4.323563	6960.937500	0.002183	-0.000042	1.000000	0.002183	-1.110148	14.994123	1.535175	13
	4	4.322844	6164.062500	0.002184	-0.000045	1.000000	0.002185	-1.184221	14.994094	1.535179	13
	5	4.323522	5460.937500	0.002186	-0.000048	1.000000	0.002187	-1.258837	14.994235	1.535182	13
	6	0.482245	4851.562500	0.002189	-0.000051	1.000000	0.002189	-1.335823	14.994267	1.535176	13
	7	0.696878	4289.062500	0.002192	-0.000054	1.000000	0.002193	-1.423983	14.994279	1.535164	13
	8	0.486951	3782.487549	0.002195	-0.000059	1.000000	0.002196	-1.531556	14.994311	1.535165	13
	9	0.702354	3364.789551	0.002199	-0.000062	1.000000	0.002200	-1.614968	14.994265	1.535156	13
	10	0.909857	2976.562500	0.002203	-0.000066	1.000000	0.002204	-1.719397	14.994001	1.535147	13
	11	0.483704	2648.437500	0.002206	-0.000070	1.000000	0.002207	-1.824927	14.994158	1.535139	13
	12	0.493113	2343.750000	0.002211	-0.000075	1.000000	0.002212	-1.935926	14.994231	1.535145	13
	13	0.703612	2065.284668	0.002216	-0.000080	1.000000	0.002217	-2.054870	14.994345	1.535159	13
	14	1.350019	1833.230103	0.002221	-0.000084	1.000000	0.002223	-2.174455	14.994178	1.535181	13
	15	0.491846	1631.433838	0.002226	-0.000090	1.000000	0.002228	-2.302963	14.994230	1.535174	13
	16	0.527995	1433.555908	0.002232	-0.000095	1.000000	0.002234	-2.443573	14.994205	1.535174	13
	17	0.702525	1276.299438	0.002238	-0.000101	1.000000	0.002241	-2.588965	14.994291	1.535171	13
	18	0.491910	1125.919067	0.002245	-0.000108	1.000000	0.002248	-2.744803	14.994074	1.535180	13
	19	1.780453	997.834106	0.002252	-0.000114	1.000000	0.002255	-2.894067	14.994398	1.535176	13
	20	0.715926	887.439331	0.002259	-0.000121	1.000000	0.002262	-3.055778	14.994358	1.535166	13
	21	0.506315	781.250000	0.002267	-0.000128	1.000000	0.002271	-3.239285	14.994185	1.535156	13
	22	0.953624	691.964294	0.002276	-0.000136	1.000000	0.002280	-3.412450	14.994447	1.535175	13
	23	0.935328	614.381104	0.002285	-0.000144	1.000000	0.002289	-3.597201	14.994466	1.535180	13
	24	0.513557	547.605164	0.002294	-0.000152	1.000000	0.002299	-3.782364	14.994453	1.535171	13
	25	0.709689	482.536774	0.002304	-0.000161	1.000000	0.002309	-3.995332	14.993237	1.535164	13
	26	0.501273	428.185089	0.002315	-0.000170	1.000000	0.002321	-4.199759	14.993155	1.535196	13
	27	0.505101	379.464294	0.002326	-0.000180	1.000000	0.002333	-4.419140	14.993339	1.535204	13
	28	0.505488	334.821442	0.002339	-0.000190	1.000000	0.002347	-4.653120	14.993396	1.535219	13
	29	0.492352	298.713226	0.002351	-0.000201	1.000000	0.002360	-4.875418	14.993200	1.535221	13
	30	0.453415	262.661652	0.002366	-0.000212	1.000000	0.002376	-5.130475	14.993394	1.535208	13
	31	0.527205	234.375000	0.002380	-0.000224	1.000000	0.002390	-5.366820	14.993234	1.535210	13
	32	0.492427	206.801468	0.002396	-0.000236	1.000000	0.002408	-5.633471	14.993173	1.535216	13
	33	0.645320	183.423920	0.002413	-0.000249	1.000000	0.002426	-5.892854	14.993442	1.535214	13
	34	0.488395	162.438110	0.002431	-0.000263	1.000000	0.002445	-6.163654	14.993401	1.535216	13
	35	0.444810	143.914474	0.002450	-0.000276	1.000000	0.002466	-6.434159	14.993262	1.535220	13
	36	0.522601	127.180237	0.002471	-0.000291	1.000000	0.002488	-6.711899	14.993260	1.535228	13
	37	0.942963	112.680290	0.002493	-0.000305	1.000000	0.002512	-6.980780	14.993153	1.535219	13
	38	0.667263	100.160255	0.002516	-0.000320	1.000000	0.002536	-7.244546	14.993573	1.535211	13
	39	0.959149	88.778412	0.002540	-0.000334	1.000000	0.002562	-7.498273	14.993310	1.535215	13
	40	0.819667	78.649330	0.002566	-0.000349	1.000000	0.002590	-7.753152	14.993617	1.535226	13
	41	0.487746	69.616333	0.002593	-0.000364	1.000000	0.002618	-7.997599	14.993250	1.535201	13
	42	0.445012	61.677631	0.002622	-0.000379	1.000000	0.002649	-8.234618	14.993196	1.535201	13
	43	0.938337	54.505817	0.002652	-0.000395	1.000000	0.002681	-8.462666	14.993224	1.535178	13
	44	0.645279	48.491379	0.002681	-0.000409	1.000000	0.002712	-8.678940	14.993601	1.535180	13
	45	1.106272	42.873474	0.002714	-0.000425	1.000000	0.002747	-8.897596	14.993629	1.535195	13
	46	0.767756	38.006756	0.002747	-0.000440	1.000000	0.002782	-9.102083	14.993429	1.535190	13
	47	0.950253	33.642345	0.002781	-0.000456	1.000000	0.002818	-9.309082	14.993671	1.535194	13
	48	0.661648	29.793432	0.002817	-0.000472	1.000000	0.002856	-9.520595	14.993950	1.535165	13
	49	0.744963	26.334269	0.002856	-0.000489	1.000000	0.002898	-9.715465	14.993849	1.535146	13
	50	0.484390	23.437500	0.002896	-0.000505	1.000000	0.002939	-9.900916	14.993152	1.535096	13
	51	0.151991	20.741150	0.003036	-0.000448	1.000000	0.003069	-8.399164	14.995481	1.535976	13
	52	0.220397	18.310547	0.003033	-0.000499	1.000000	0.003074	-9.346468	14.994353	1.535507	13
	53	0.302597	16.276043	0.003064	-0.000525	1.000000	0.003108	-9.719167	14.994097	1.535326	13
	54	0.332942	14.378834	0.003115	-0.000538	1.000000	0.003162	-9.796801	14.994410	1.535325	13
	55	0.307243	12.737772	0.003184	-0.000535	1.000000	0.003229	-9.544942	14.994338	1.535398	13
	56	0.438175	11.268029	0.003223	-0.000560	1.000000	0.003271	-9.854074	14.993822	1.535260	13
	57	0.455672	10.016026	0.003277	-0.000566	1.000000	0.003326	-9.794125	14.994222	1.535236	13
	58	0.394523	8.877841	0.003346	-0.000555	1.000000	0.003391	-9.421179	14.993715	1.535287	13
	59	0.439059	7.864933	0.003403	-0.000556	1.000000	0.003448	-9.284678	14.994162	1.535253	13
	60	0.772217	6.975446	0.003440	-0.000576	1.000000	0.003488	-9.511555	14.993852	1.535104	13
	61	1.192735	6.151575	0.003494	-0.000577	1.000000	0.003541	-9.369328	14.994009	1.535024	13
	62	0.976753	5.476051	0.003552	-0.000560	1.000000	0.003596	-8.960979	14.993961	1.535007	13
	63	1.089126	4.842459	0.003609	-0.000545	1.000000	0.003650	-8.593843	14.993930	1.535003	13
	64	1.218585	4.300459	0.003659	-0.000530	1.000000	0.003697	-8.241223	14.994007	1.534957	13
	65	1.378184	3.792476	0.003709	-0.000511	1.000000	0.003744	-7.846068	14.994078	1.534913	13
	66	1.540451	3.367457	0.003754	-0.000491	1.000000	0.003786	-7.448585	14.993719	1.534891	13
	67	2.732490	2.989477	0.003792	-0.000475	1.000000	0.003822	-7.134490	14.993690	1.534855	13
	68	2.328383	2.639358	0.003834	-0.000447	1.000000	0.003860	-6.654386	14.994002	1.534874	13
	69	3.043401	2.343750	0.003859	-0.000411	1.000000	0.003881	-6.081726	15.034028	1.535046	13
	70	3.441116	2.068623	0.003896	-0.000393	1.000000	0.003916	-5.765488	15.024612	1.534912	13
	71	3.890171	1.825351	0.003927	-0.000370	1.000000	0.003945	-5.375962	15.017295	1.534915	13
	72	3.131835	1.625347	0.003952	-0.000343	1.000000	0.003967	-4.953121	15.021643	1.534934	13
	73	4.240131	1.436121	0.003977	-0.000323	1.000000	0.003990	-4.639532	15.010684	1.534858	13
	74	3.973731	1.276552	0.003998	-0.000296	1.000000	0.004009	-4.231795	15.010727	1.534911	13
	75	4.493777	1.126803	0.004017	-0.000279	1.000000	0.004027	-3.976975	15.006550	1.534872	13
	76	13.111268	0.999041	0.004035	-0.000264	1.000000	0.004044	-3.749425	14.996953	1.534849	13
	77	5.712845	0.883767	0.004050	-0.000240	1.000000	0.004057	-3.391982	15.001600	1.534900	13
	78	6.427363	0.784650	0.004062	-0.000226	1.000000	0.004068	-3.185189	15.000159	1.534961	13
	79	5.800521	0.696301	0.004075	-0.000209	1.000000	0.004080	-2.933547	15.000288	1.534991	13
	80	6.540709	0.616776	0.004083	-0.000194	1.000000	0.004088	-2.717533	14.998693	1.534979	13
	81	7.380840	0.547094	0.004094	-0.000181	1.000000	0.004098	-2.525093	14.997602	1.534994	13
	82	10.404286	0.483447	0.004102	-0.000169	1.000000	0.004105	-2.359168	14.996158	1.535001	13
	83	11.694314	0.429730	0.004109	-0.000158	1.000000	0.004112	-2.200314	14.995687	1.535030	13
	84	10.571059	0.380417	0.004115	-0.000150	1.000000	0.004117	-2.085590	14.995778	1.535082	13
	85	11.950342	0.336311	0.004122	-0.000140	1.000000	0.004124	-1.942602	14.995361	1.535150	13
	86	13.501652	0.297506	0.004128	-0.000132	1.000000	0.004131	-1.825307	14.994987	1.535157	13
	87	15.224672	0.263698	0.004132	-0.000126	1.000000	0.004134	-1.740513	14.994758	1.535158	13
	88	17.123509	0.234375	0.004136	-0.000118	1.000000	0.004138	-1.629843	14.994108	1.535154	13
	89	19.341048	0.207412	0.004139	-0.000112	1.000000	0.004140	-1.550080	14.993990	1.535136	13
