EXPLAIN											
TAG	GALVEIS										
TITLE	LABEL	GI-GALVEIS	Test &Identifier								
DATE	LABEL	2024-06-20	Date								
TIME	LABEL	8:07:07 AM	Time								
NOTES	NOTES		&Notes...								
	FCATS v19.0.1f5										
PSTAT	PSTAT	REF3000-42167	Potentiostat								
IDCREQ	QUANT	15.000000	DC & Current (A)								
FREQINIT	QUANT	10000.000000	Initial Freq&q. (Hz)								
FREQFINAL	QUANT	0.200000	Final Fre&q. (Hz)								
PTSPERDEC	QUANT	19.000000	Points/&decade								
IACREQ	QUANT	3.500000	AC & Current (A rms)								
AREA	QUANT	50.000000	&Area(cm^2)								
CONDIT	TWOPARAM	F	N/A	N/A	Conditionin&g	Time(s)	E(V)				
DELAY	TWOPARAM	F	N/A	N/A	Init. &Delay	Time(s)	Stab.(mV/s)				
SPEED	SELECTOR	Low Noise	&Optimizer for:								
ZGUESS	QUANT	0.010000	E&stimated z (ohms)								
PSTATMODEL	IQUANT	6	Pstat Model								
PSTATSECTION	LABEL	42167	Pstat Section								
PSTATSERIALNO	LABEL	42167	Pstat Serial Number								
CTRLMODE	IQUANT	0	Control Mode								
ELECTROMETER	IQUANT	0	RE=0 or CS=1								
IESTAB	IQUANT	0	I/E Stability								
CASPEED	IQUANT	4	Control Amp Speed								
CONVENTION	IQUANT	1	Current Convention								
ICHRANGE	IQUANT	2	Ich Range								
ICHRANGEMODE	TOGGLE	F	Ich Auto Range								
ICHOFFSETENABLE	TOGGLE	T	Ich Offest Enable								
ICHOFFSET	QUANT	0.000000	Ich Offset (V)								
ICHFILTER	IQUANT	2	Ich Filter								
VCHRANGE	IQUANT	2	Vch Range								
VCHRANGEMODE	TOGGLE	F	Vch Auto Range								
VCHOFFSETENABLE	TOGGLE	T	Vch Offeset Enable								
VCHOFFSET	QUANT	0.000000	Ich Offset (V)								
VCHFILTER	IQUANT	2	Vch filter								
ACHRANGE	IQUANT	2	Ach range								
ACHOFFSETENABLE	TOGGLE	F	Ach Offset Enable								
ACHOFFSET	QUANT	0.000000	Ach Offset (V)								
ACHFILTER	IQUANT	1	Ach Filter								
IERANGELOWERLIMIT	IQUANT	0	I/E Range Lower Limit								
IERANGEMODE	TOGGLE	F	I/E Autorange								
IERANGE	QUANT	13.000000	I/E Range								
POSFEEDENABLE	TOGGLE	F	Positive Feedback IR Comp								
POSFEEDRESISTANCE	QUANT	0.000000	Positive Feedback Resistance (ohm)								
ACHSELECT	IQUANT	0	Ach Select								
SENSECABLEID	IQUANT	14	Sense Cable ID								
DCCALDATE	LABEL	4/17/2024	DC Calibration Date								
ACCALDATE	LABEL	12/21/2023	AC Calibration Date								
THERMOSELECT	IQUANT	0	Thermo Select								
FRAMEWORKVERSION	LABEL	3.5.5.0	Framework Version								
COMPLIANCEVOLTAGE	IQUANT	0	Compliance Voltage								
ZCURVE	TABLE										
	Pt	Time	Freq	Zreal	Zimag	Zsig	Zmod	Zphz	Idc	Vdc	IERange
	#	s	Hz	ohm	ohm	V	ohm	°	A	V	#
	0	0.804437	10007.812500	0.000837	-0.000016	1.000000	0.000837	-1.117046	14.994617	1.474219	13
	1	4.322464	8882.812500	0.000837	-0.000020	1.000000	0.000837	-1.339638	14.994528	1.474251	13
	2	4.321908	7851.562500	0.000838	-0.000023	1.000000	0.000838	-1.551430	14.994499	1.474253	13
	3	4.322189	6960.937500	0.000839	-0.000026	1.000000	0.000840	-1.770079	14.994584	1.474257	13
	4	4.324377	6164.062500	0.000841	-0.000029	1.000000	0.000842	-1.966426	14.994629	1.474264	13
	5	4.323402	5460.937500	0.000843	-0.000032	1.000000	0.000844	-2.193464	14.994526	1.474270	13
	6	0.484001	4851.562500	0.000846	-0.000035	1.000000	0.000847	-2.386903	14.994301	1.474318	13
	7	0.696236	4289.062500	0.000849	-0.000038	1.000000	0.000849	-2.592803	14.994615	1.474272	13
	8	0.487200	3782.487549	0.000852	-0.000042	1.000000	0.000853	-2.793689	14.994603	1.474335	13
	9	0.703182	3364.789551	0.000855	-0.000045	1.000000	0.000856	-2.989097	14.994810	1.474311	13
	10	0.697278	2976.562500	0.000858	-0.000048	1.000000	0.000860	-3.223277	14.994125	1.474292	13
	11	0.697326	2648.437500	0.000862	-0.000051	1.000000	0.000863	-3.357519	14.994590	1.474314	13
	12	0.491433	2343.750000	0.000866	-0.000054	1.000000	0.000868	-3.562425	14.994880	1.474248	13
	13	0.487380	2065.284668	0.000870	-0.000057	1.000000	0.000871	-3.758648	14.994822	1.474324	13
	14	0.487295	1833.230103	0.000874	-0.000060	1.000000	0.000876	-3.960969	14.994698	1.474274	13
	15	0.491386	1631.433838	0.000878	-0.000064	1.000000	0.000880	-4.165890	14.994397	1.474309	13
	16	0.495924	1433.555908	0.000882	-0.000067	1.000000	0.000885	-4.348646	14.994658	1.474278	13
	17	0.917123	1276.299438	0.000887	-0.000071	1.000000	0.000890	-4.578917	14.994713	1.474312	13
	18	0.494534	1125.919067	0.000891	-0.000075	1.000000	0.000895	-4.839469	14.994596	1.474263	13
	19	0.702313	997.834106	0.000897	-0.000079	1.000000	0.000900	-5.026631	14.994892	1.474300	13
	20	0.721865	887.439331	0.000902	-0.000083	1.000000	0.000906	-5.284050	14.994755	1.474303	13
	21	0.951252	781.250000	0.000907	-0.000088	1.000000	0.000912	-5.543979	14.995042	1.474335	13
	22	0.504097	691.964294	0.000912	-0.000093	1.000000	0.000917	-5.800725	14.994976	1.474296	13
	23	0.496526	614.381104	0.000919	-0.000099	1.000000	0.000924	-6.123378	14.994673	1.474298	13
	24	0.741796	547.605164	0.000925	-0.000104	1.000000	0.000930	-6.394964	14.994961	1.474292	13
	25	0.492268	482.536774	0.000931	-0.000110	1.000000	0.000938	-6.706543	14.993722	1.474318	13
	26	0.500118	428.185089	0.000938	-0.000116	1.000000	0.000945	-7.035670	14.993679	1.474305	13
	27	0.504649	379.464294	0.000945	-0.000123	1.000000	0.000953	-7.395003	14.993837	1.474337	13
	28	0.512629	334.821442	0.000954	-0.000130	1.000000	0.000963	-7.777948	14.993757	1.474356	13
	29	0.926941	298.713226	0.000962	-0.000138	1.000000	0.000971	-8.152903	14.993702	1.474329	13
	30	0.649808	262.661652	0.000971	-0.000147	1.000000	0.000982	-8.589149	14.993693	1.474353	13
	31	0.527402	234.375000	0.000980	-0.000155	1.000000	0.000993	-8.997857	14.993733	1.474304	13
	32	0.927221	206.801468	0.000991	-0.000165	1.000000	0.001005	-9.455471	14.993697	1.474353	13
	33	1.037179	183.423920	0.001003	-0.000175	1.000000	0.001018	-9.906515	14.993954	1.474365	13
	34	0.490633	162.438110	0.001016	-0.000186	1.000000	0.001033	-10.368830	14.993787	1.474340	13
	35	1.029163	143.914474	0.001030	-0.000197	1.000000	0.001048	-10.820098	14.993600	1.474337	13
	36	0.498433	127.180237	0.001045	-0.000208	1.000000	0.001066	-11.267917	14.993876	1.474367	13
	37	0.945584	112.680290	0.001062	-0.000220	1.000000	0.001084	-11.678781	14.993671	1.474317	13
	38	0.456944	100.160255	0.001080	-0.000230	1.000000	0.001104	-12.043921	14.993848	1.474420	13
	39	0.732759	88.778412	0.001099	-0.000241	1.000000	0.001125	-12.376353	14.993898	1.474359	13
	40	0.826306	78.649330	0.001120	-0.000252	1.000000	0.001148	-12.670680	14.994059	1.474327	13
	41	0.703104	69.616333	0.001142	-0.000262	1.000000	0.001171	-12.907332	14.994030	1.474383	13
	42	0.446679	61.677631	0.001164	-0.000271	1.000000	0.001195	-13.085991	14.993767	1.474372	13
	43	0.717514	54.505817	0.001189	-0.000279	1.000000	0.001221	-13.201786	14.993964	1.474404	13
	44	0.614554	48.491379	0.001212	-0.000285	1.000000	0.001245	-13.239976	14.993906	1.474358	13
	45	1.107473	42.873474	0.001237	-0.000292	1.000000	0.001271	-13.286005	14.994114	1.474363	13
	46	1.241162	38.006756	0.001261	-0.000297	1.000000	0.001295	-13.261747	14.993921	1.474371	13
	47	0.773075	33.642345	0.001285	-0.000303	1.000000	0.001320	-13.252995	14.994130	1.474396	13
	48	0.660958	29.793432	0.001310	-0.000306	1.000000	0.001345	-13.136633	14.994404	1.474388	13
	49	0.516618	26.334269	0.001333	-0.000310	1.000000	0.001369	-13.075292	14.993694	1.474341	13
	50	0.483705	23.437500	0.001356	-0.000313	1.000000	0.001392	-12.997000	14.993411	1.474292	13
	51	0.201619	20.741150	0.001409	-0.000299	1.000000	0.001441	-11.996095	14.995034	1.474828	13
	52	0.274730	18.310547	0.001416	-0.000313	1.000000	0.001450	-12.474061	14.994466	1.474503	13
	53	0.240487	16.276043	0.001448	-0.000314	1.000000	0.001481	-12.232794	14.994524	1.474624	13
	54	0.264317	14.378834	0.001474	-0.000323	1.000000	0.001509	-12.369633	14.994696	1.474541	13
	55	0.370805	12.737772	0.001485	-0.000342	1.000000	0.001524	-12.973898	14.994545	1.474550	13
	56	0.321822	11.268029	0.001519	-0.000347	1.000000	0.001559	-12.865660	14.994303	1.474595	13
	57	0.453989	10.016026	0.001536	-0.000359	1.000000	0.001577	-13.148322	14.994318	1.474476	13
	58	0.845769	8.877841	0.001555	-0.000376	1.000000	0.001599	-13.581871	14.994140	1.474399	13
	59	0.438149	7.864933	0.001604	-0.000381	1.000000	0.001649	-13.354140	14.994546	1.474512	13
	60	1.202779	6.975446	0.001609	-0.000413	1.000000	0.001661	-14.380401	14.994082	1.474347	13
	61	1.030558	6.151575	0.001645	-0.000427	1.000000	0.001700	-14.532654	14.994345	1.474389	13
	62	0.968809	5.476051	0.001685	-0.000444	1.000000	0.001743	-14.773906	14.994344	1.474372	13
	63	1.295411	4.842459	0.001723	-0.000463	1.000000	0.001784	-15.029884	14.994252	1.474331	13
	64	1.451210	4.300459	0.001768	-0.000476	1.000000	0.001831	-15.069857	14.994368	1.474351	13
	65	1.374514	3.792476	0.001819	-0.000488	1.000000	0.001883	-15.008537	14.994328	1.474299	13
	66	2.136200	3.367457	0.001861	-0.000503	1.000000	0.001928	-15.110844	14.994130	1.474247	13
	67	3.066794	2.989477	0.001913	-0.000513	1.000000	0.001980	-15.003497	14.994049	1.474213	13
	68	2.329337	2.639358	0.001973	-0.000511	1.000000	0.002038	-14.511771	14.994361	1.474201	13
	69	3.043214	2.343750	0.002015	-0.000509	1.000000	0.002078	-14.171279	15.031717	1.474273	13
	70	2.956406	2.068623	0.002069	-0.000496	1.000000	0.002127	-13.471373	15.030988	1.474228	13
	71	2.797149	1.825351	0.002131	-0.000481	1.000000	0.002184	-12.709103	15.029649	1.474216	13
	72	3.131960	1.625347	0.002179	-0.000465	1.000000	0.002228	-12.034973	15.021993	1.474180	13
	73	3.536449	1.436121	0.002225	-0.000447	1.000000	0.002269	-11.370649	15.015477	1.474147	13
	74	3.973451	1.276552	0.002269	-0.000429	1.000000	0.002309	-10.718145	15.010915	1.474130	13
	75	4.492718	1.126803	0.002308	-0.000406	1.000000	0.002343	-9.983908	15.007044	1.474103	13
	76	5.061937	0.999041	0.002341	-0.000381	1.000000	0.002371	-9.243363	15.004447	1.474095	13
	77	4.586237	0.883767	0.002373	-0.000351	1.000000	0.002399	-8.413400	15.004717	1.474085	13
	78	6.429804	0.784650	0.002399	-0.000333	1.000000	0.002422	-7.899413	15.000469	1.474052	13
	79	7.236146	0.696301	0.002430	-0.000313	1.000000	0.002450	-7.339820	14.999011	1.474043	13
	80	8.163227	0.616776	0.002457	-0.000289	1.000000	0.002474	-6.706364	14.997659	1.474030	13
	81	9.196189	0.547094	0.002471	-0.000265	1.000000	0.002485	-6.126145	14.997020	1.474039	13
	82	10.399342	0.483447	0.002486	-0.000238	1.000000	0.002497	-5.473123	14.996699	1.474070	13
	83	9.364781	0.429730	0.002498	-0.000217	1.000000	0.002507	-4.962206	14.996882	1.474090	13
	84	13.199839	0.380417	0.002514	-0.000206	1.000000	0.002523	-4.691513	14.995820	1.474133	13
	85	11.949630	0.336311	0.002524	-0.000182	1.000000	0.002530	-4.128231	14.995781	1.474190	13
	86	13.501080	0.297506	0.002529	-0.000166	1.000000	0.002535	-3.758368	14.995408	1.474219	13
	87	19.016962	0.263698	0.002545	-0.000152	1.000000	0.002549	-3.419016	14.994860	1.474237	13
	88	17.122142	0.234375	0.002543	-0.000135	1.000000	0.002546	-3.037071	14.994529	1.474276	13
	89	24.163436	0.207412	0.002547	-0.000125	1.000000	0.002550	-2.819888	14.994261	1.474329	13
