EXPLAIN											
TAG	GALVEIS										
TITLE	LABEL	GI-GALVEIS	Test &Identifier								
DATE	LABEL	2024-06-21	Date								
TIME	LABEL	5:40:23 AM	Time								
NOTES	NOTES		&Notes...								
	FCATS v19.0.1f5										
PSTAT	PSTAT	REF3000-42167	Potentiostat								
IDCREQ	QUANT	25.000000	DC & Current (A)								
FREQINIT	QUANT	10000.000000	Initial Freq&q. (Hz)								
FREQFINAL	QUANT	0.200000	Final Fre&q. (Hz)								
PTSPERDEC	QUANT	19.000000	Points/&decade								
IACREQ	QUANT	3.000000	AC & Current (A rms)								
AREA	QUANT	50.000000	&Area(cm^2)								
CONDIT	TWOPARAM	F	N/A	N/A	Conditionin&g	Time(s)	E(V)				
DELAY	TWOPARAM	F	N/A	N/A	Init. &Delay	Time(s)	Stab.(mV/s)				
SPEED	SELECTOR	Low Noise	&Optimizer for:								
ZGUESS	QUANT	0.010000	E&stimated z (ohms)								
PSTATMODEL	IQUANT	6	Pstat Model								
PSTATSECTION	LABEL	42167	Pstat Section								
PSTATSERIALNO	LABEL	42167	Pstat Serial Number								
CTRLMODE	IQUANT	0	Control Mode								
ELECTROMETER	IQUANT	0	RE=0 or CS=1								
IESTAB	IQUANT	0	I/E Stability								
CASPEED	IQUANT	4	Control Amp Speed								
CONVENTION	IQUANT	1	Current Convention								
ICHRANGE	IQUANT	2	Ich Range								
ICHRANGEMODE	TOGGLE	F	Ich Auto Range								
ICHOFFSETENABLE	TOGGLE	T	Ich Offest Enable								
ICHOFFSET	QUANT	0.000000	Ich Offset (V)								
ICHFILTER	IQUANT	2	Ich Filter								
VCHRANGE	IQUANT	2	Vch Range								
VCHRANGEMODE	TOGGLE	F	Vch Auto Range								
VCHOFFSETENABLE	TOGGLE	T	Vch Offeset Enable								
VCHOFFSET	QUANT	0.000000	Ich Offset (V)								
VCHFILTER	IQUANT	2	Vch filter								
ACHRANGE	IQUANT	2	Ach range								
ACHOFFSETENABLE	TOGGLE	F	Ach Offset Enable								
ACHOFFSET	QUANT	0.000000	Ach Offset (V)								
ACHFILTER	IQUANT	1	Ach Filter								
IERANGELOWERLIMIT	IQUANT	0	I/E Range Lower Limit								
IERANGEMODE	TOGGLE	F	I/E Autorange								
IERANGE	QUANT	13.000000	I/E Range								
POSFEEDENABLE	TOGGLE	F	Positive Feedback IR Comp								
POSFEEDRESISTANCE	QUANT	0.000000	Positive Feedback Resistance (ohm)								
ACHSELECT	IQUANT	0	Ach Select								
SENSECABLEID	IQUANT	14	Sense Cable ID								
DCCALDATE	LABEL	4/17/2024	DC Calibration Date								
ACCALDATE	LABEL	12/21/2023	AC Calibration Date								
THERMOSELECT	IQUANT	0	Thermo Select								
FRAMEWORKVERSION	LABEL	3.5.5.0	Framework Version								
COMPLIANCEVOLTAGE	IQUANT	0	Compliance Voltage								
ZCURVE	TABLE										
	Pt	Time	Freq	Zreal	Zimag	Zsig	Zmod	Zphz	Idc	Vdc	IERange
	#	s	Hz	ohm	ohm	V	ohm	°	A	V	#
	0	0.798289	10007.812500	0.001585	-0.000019	1.000000	0.001585	-0.676614	24.993469	1.571655	13
	1	4.323000	8882.812500	0.001583	-0.000021	1.000000	0.001583	-0.744454	24.993515	1.571712	13
	2	4.322278	7851.562500	0.001583	-0.000023	1.000000	0.001584	-0.817897	24.993551	1.571790	13
	3	4.322530	6960.937500	0.001585	-0.000025	1.000000	0.001585	-0.897287	24.993502	1.571891	13
	4	4.323321	6164.062500	0.001586	-0.000027	1.000000	0.001586	-0.975734	24.993570	1.571992	13
	5	4.327589	5460.937500	0.001588	-0.000029	1.000000	0.001588	-1.054226	24.993570	1.572095	13
	6	4.323218	4851.562500	0.001590	-0.000032	1.000000	0.001590	-1.139110	24.993610	1.572209	13
	7	4.322880	4289.062500	0.001592	-0.000034	1.000000	0.001593	-1.230630	24.993570	1.572307	13
	8	4.366498	3782.487549	0.001595	-0.000037	1.000000	0.001595	-1.322663	24.993731	1.572427	13
	9	4.366036	3364.789551	0.001597	-0.000040	1.000000	0.001597	-1.417806	24.993729	1.572490	13
	10	4.322515	2976.562500	0.001600	-0.000043	1.000000	0.001600	-1.522789	24.993122	1.572611	13
	11	0.486661	2648.437500	0.001602	-0.000045	1.000000	0.001603	-1.613860	24.993628	1.572684	13
	12	0.488539	2343.750000	0.001605	-0.000049	1.000000	0.001606	-1.737853	24.993980	1.572695	13
	13	1.134387	2065.284668	0.001609	-0.000052	1.000000	0.001610	-1.843254	24.993628	1.572679	13
	14	0.488430	1833.230103	0.001612	-0.000055	1.000000	0.001613	-1.956149	24.993713	1.572688	13
	15	0.928021	1631.433838	0.001615	-0.000058	1.000000	0.001616	-2.074269	24.993528	1.572694	13
	16	0.715624	1433.555908	0.001619	-0.000062	1.000000	0.001621	-2.204895	24.993849	1.572721	13
	17	0.487505	1276.299438	0.001623	-0.000066	1.000000	0.001624	-2.322142	24.993679	1.572723	13
	18	0.926411	1125.919067	0.001628	-0.000071	1.000000	0.001630	-2.495454	24.993525	1.572732	13
	19	0.917988	997.834106	0.001633	-0.000075	1.000000	0.001634	-2.631951	24.993656	1.572794	13
	20	0.934254	887.439331	0.001637	-0.000079	1.000000	0.001639	-2.772541	24.994223	1.572803	13
	21	0.505930	781.250000	0.001644	-0.000086	1.000000	0.001646	-2.981299	24.994093	1.572853	13
	22	0.505942	691.964294	0.001649	-0.000090	1.000000	0.001651	-3.132427	24.994076	1.572833	13
	23	0.496558	614.381104	0.001655	-0.000096	1.000000	0.001657	-3.306643	24.993986	1.572824	13
	24	0.740363	547.605164	0.001661	-0.000101	1.000000	0.001664	-3.467420	24.993948	1.572821	13
	25	0.709880	482.536774	0.001667	-0.000107	1.000000	0.001670	-3.677758	24.992647	1.572872	13
	26	0.500642	428.185089	0.001674	-0.000113	1.000000	0.001678	-3.871670	24.992504	1.572862	13
	27	0.504138	379.464294	0.001682	-0.000120	1.000000	0.001686	-4.083240	24.992771	1.572860	13
	28	0.505816	334.821442	0.001690	-0.000127	1.000000	0.001695	-4.307377	24.992844	1.572905	13
	29	0.491954	298.713226	0.001698	-0.000134	1.000000	0.001704	-4.521281	24.992510	1.572925	13
	30	0.650483	262.661652	0.001708	-0.000143	1.000000	0.001713	-4.773104	24.992563	1.572881	13
	31	0.526007	234.375000	0.001716	-0.000150	1.000000	0.001723	-5.004289	24.992594	1.572879	13
	32	0.495674	206.801468	0.001727	-0.000159	1.000000	0.001735	-5.270113	24.992611	1.572923	13
	33	0.842315	183.423920	0.001738	-0.000168	1.000000	0.001746	-5.535158	24.992960	1.572909	13
	34	0.487044	162.438110	0.001750	-0.000178	1.000000	0.001759	-5.811388	24.992855	1.572925	13
	35	0.640902	143.914474	0.001762	-0.000188	1.000000	0.001772	-6.097086	24.992447	1.572925	13
	36	0.724708	127.180237	0.001776	-0.000199	1.000000	0.001787	-6.389555	24.992765	1.572947	13
	37	0.500157	112.680290	0.001790	-0.000210	1.000000	0.001802	-6.687744	24.992477	1.572988	13
	38	0.456905	100.160255	0.001805	-0.000221	1.000000	0.001819	-6.979892	24.992897	1.572996	13
	39	0.507668	88.778412	0.001822	-0.000233	1.000000	0.001837	-7.275925	24.992365	1.573020	13
	40	0.631741	78.649330	0.001839	-0.000245	1.000000	0.001856	-7.580602	24.992836	1.572969	13
	41	0.491590	69.616333	0.001859	-0.000257	1.000000	0.001876	-7.871518	24.992840	1.573027	13
	42	0.445764	61.677631	0.001879	-0.000269	1.000000	0.001898	-8.158365	24.992420	1.573006	13
	43	0.497231	54.505817	0.001901	-0.000282	1.000000	0.001922	-8.423794	24.992640	1.573028	13
	44	1.169882	48.491379	0.001923	-0.000293	1.000000	0.001945	-8.669698	24.992979	1.573035	13
	45	0.686735	42.873474	0.001948	-0.000305	1.000000	0.001972	-8.904798	24.992397	1.573061	13
	46	0.769114	38.006756	0.001973	-0.000317	1.000000	0.001999	-9.114944	24.992857	1.573092	13
	47	1.127995	33.642345	0.002000	-0.000328	1.000000	0.002027	-9.310546	24.992920	1.573065	13
	48	0.459969	29.793432	0.002027	-0.000339	1.000000	0.002055	-9.496503	24.992529	1.573077	13
	49	0.967577	26.334269	0.002056	-0.000349	1.000000	0.002086	-9.638118	24.993269	1.573100	13
	50	0.695635	23.437500	0.002085	-0.000359	1.000000	0.002115	-9.768572	24.992870	1.573060	13
	51	0.249229	20.741150	0.002138	-0.000350	1.000000	0.002166	-9.309331	24.993666	1.573309	13
	52	0.165172	18.310547	0.002205	-0.000330	1.000000	0.002229	-8.509226	24.994278	1.573525	13
	53	0.301678	16.276043	0.002202	-0.000368	1.000000	0.002232	-9.480126	24.993542	1.573256	13
	54	0.403174	14.378834	0.002230	-0.000380	1.000000	0.002262	-9.670368	24.993694	1.573203	13
	55	0.292995	12.737772	0.002280	-0.000374	1.000000	0.002311	-9.319153	24.993656	1.573320	13
	56	0.322322	11.268029	0.002317	-0.000382	1.000000	0.002348	-9.361644	24.993204	1.573285	13
	57	0.655918	10.016026	0.002333	-0.000402	1.000000	0.002368	-9.783170	24.993568	1.573157	13
	58	0.505584	8.877841	0.002379	-0.000399	1.000000	0.002412	-9.520926	24.993156	1.573186	13
	59	0.436943	7.864933	0.002427	-0.000392	1.000000	0.002458	-9.176011	24.993513	1.573231	13
	60	0.778916	6.975446	0.002451	-0.000406	1.000000	0.002484	-9.399885	24.993134	1.573164	13
	61	1.192494	6.151575	0.002489	-0.000408	1.000000	0.002522	-9.318896	24.993416	1.573150	13
	62	0.969001	5.476051	0.002530	-0.000400	1.000000	0.002561	-8.994936	24.993383	1.573173	13
	63	1.295511	4.842459	0.002567	-0.000396	1.000000	0.002598	-8.777041	24.993322	1.573220	13
	64	1.218290	4.300459	0.002606	-0.000385	1.000000	0.002634	-8.412269	24.993387	1.573224	13
	65	2.164585	3.792476	0.002640	-0.000379	1.000000	0.002667	-8.168234	24.993496	1.573192	13
	66	1.838181	3.367457	0.002676	-0.000364	1.000000	0.002701	-7.748385	24.993116	1.573195	13
	67	2.063493	2.989477	0.002708	-0.000351	1.000000	0.002730	-7.378853	24.993109	1.573215	13
	68	2.709081	2.639358	0.002738	-0.000336	1.000000	0.002759	-6.994673	24.993479	1.573262	13
	69	2.616242	2.343750	0.002759	-0.000315	1.000000	0.002777	-6.522931	25.032465	1.573411	13
	70	5.374310	2.068623	0.002788	-0.000303	1.000000	0.002805	-6.200096	25.009155	1.573352	13
	71	3.343256	1.825351	0.002813	-0.000283	1.000000	0.002827	-5.741791	25.017366	1.573452	13
	72	3.132898	1.625347	0.002836	-0.000265	1.000000	0.002848	-5.341763	25.017229	1.573488	13
	73	3.537040	1.436121	0.002855	-0.000249	1.000000	0.002866	-4.977793	25.011507	1.573475	13
	74	3.972005	1.276552	0.002874	-0.000234	1.000000	0.002883	-4.652645	25.007502	1.573536	13
	75	6.268697	1.126803	0.002891	-0.000223	1.000000	0.002899	-4.403879	25.000257	1.573546	13
	76	5.061080	0.999041	0.002906	-0.000206	1.000000	0.002913	-4.045916	25.001822	1.573583	13
	77	5.714284	0.883767	0.002922	-0.000192	1.000000	0.002928	-3.753877	24.999998	1.573670	13
	78	5.153703	0.784650	0.002932	-0.000179	1.000000	0.002937	-3.489101	25.000610	1.573731	13
	79	5.800060	0.696301	0.002943	-0.000166	1.000000	0.002948	-3.237334	24.998707	1.573795	13
	80	8.162502	0.616776	0.002954	-0.000156	1.000000	0.002958	-3.020258	24.996284	1.573876	13
	81	7.367656	0.547094	0.002963	-0.000145	1.000000	0.002966	-2.802369	24.996494	1.573936	13
	82	10.398347	0.483447	0.002972	-0.000132	1.000000	0.002975	-2.548741	24.995296	1.574036	13
	83	11.690776	0.429730	0.002980	-0.000123	1.000000	0.002983	-2.359622	24.994835	1.574147	13
	84	13.199362	0.380417	0.002989	-0.000115	1.000000	0.002991	-2.200343	24.994520	1.574313	13
	85	14.928683	0.336311	0.002994	-0.000107	1.000000	0.002996	-2.040339	24.994289	1.574490	13
	86	13.502691	0.297506	0.003002	-0.000096	1.000000	0.003004	-1.837406	24.994354	1.574557	13
	87	19.018645	0.263698	0.003007	-0.000088	1.000000	0.003009	-1.676648	24.993893	1.574637	13
	88	17.123323	0.234375	0.003006	-0.000084	1.000000	0.003007	-1.609565	24.993546	1.574753	13
	89	24.164282	0.207412	0.003013	-0.000075	1.000000	0.003014	-1.430164	24.993250	1.574900	13
