EXPLAIN											
TAG	GALVEIS										
TITLE	LABEL	GI-GALVEIS	Test &Identifier								
DATE	LABEL	2024-06-21	Date								
TIME	LABEL	5:47:10 AM	Time								
NOTES	NOTES		&Notes...								
	FCATS v19.0.1f5										
PSTAT	PSTAT	REF3000-42167	Potentiostat								
IDCREQ	QUANT	15.000000	DC & Current (A)								
FREQINIT	QUANT	10000.000000	Initial Freq&q. (Hz)								
FREQFINAL	QUANT	0.200000	Final Fre&q. (Hz)								
PTSPERDEC	QUANT	19.000000	Points/&decade								
IACREQ	QUANT	3.500000	AC & Current (A rms)								
AREA	QUANT	50.000000	&Area(cm^2)								
CONDIT	TWOPARAM	F	N/A	N/A	Conditionin&g	Time(s)	E(V)				
DELAY	TWOPARAM	F	N/A	N/A	Init. &Delay	Time(s)	Stab.(mV/s)				
SPEED	SELECTOR	Low Noise	&Optimizer for:								
ZGUESS	QUANT	0.010000	E&stimated z (ohms)								
PSTATMODEL	IQUANT	6	Pstat Model								
PSTATSECTION	LABEL	42167	Pstat Section								
PSTATSERIALNO	LABEL	42167	Pstat Serial Number								
CTRLMODE	IQUANT	0	Control Mode								
ELECTROMETER	IQUANT	0	RE=0 or CS=1								
IESTAB	IQUANT	0	I/E Stability								
CASPEED	IQUANT	4	Control Amp Speed								
CONVENTION	IQUANT	1	Current Convention								
ICHRANGE	IQUANT	2	Ich Range								
ICHRANGEMODE	TOGGLE	F	Ich Auto Range								
ICHOFFSETENABLE	TOGGLE	T	Ich Offest Enable								
ICHOFFSET	QUANT	0.000000	Ich Offset (V)								
ICHFILTER	IQUANT	2	Ich Filter								
VCHRANGE	IQUANT	2	Vch Range								
VCHRANGEMODE	TOGGLE	F	Vch Auto Range								
VCHOFFSETENABLE	TOGGLE	T	Vch Offeset Enable								
VCHOFFSET	QUANT	0.000000	Ich Offset (V)								
VCHFILTER	IQUANT	2	Vch filter								
ACHRANGE	IQUANT	2	Ach range								
ACHOFFSETENABLE	TOGGLE	F	Ach Offset Enable								
ACHOFFSET	QUANT	0.000000	Ach Offset (V)								
ACHFILTER	IQUANT	1	Ach Filter								
IERANGELOWERLIMIT	IQUANT	0	I/E Range Lower Limit								
IERANGEMODE	TOGGLE	F	I/E Autorange								
IERANGE	QUANT	13.000000	I/E Range								
POSFEEDENABLE	TOGGLE	F	Positive Feedback IR Comp								
POSFEEDRESISTANCE	QUANT	0.000000	Positive Feedback Resistance (ohm)								
ACHSELECT	IQUANT	0	Ach Select								
SENSECABLEID	IQUANT	14	Sense Cable ID								
DCCALDATE	LABEL	4/17/2024	DC Calibration Date								
ACCALDATE	LABEL	12/21/2023	AC Calibration Date								
THERMOSELECT	IQUANT	0	Thermo Select								
FRAMEWORKVERSION	LABEL	3.5.5.0	Framework Version								
COMPLIANCEVOLTAGE	IQUANT	0	Compliance Voltage								
ZCURVE	TABLE										
	Pt	Time	Freq	Zreal	Zimag	Zsig	Zmod	Zphz	Idc	Vdc	IERange
	#	s	Hz	ohm	ohm	V	ohm	°	A	V	#
	0	1.015384	10007.812500	0.001586	-0.000020	1.000000	0.001586	-0.729923	14.993615	1.542379	13
	1	4.324413	8882.812500	0.001583	-0.000022	1.000000	0.001583	-0.797814	14.993773	1.542351	13
	2	4.322557	7851.562500	0.001584	-0.000024	1.000000	0.001584	-0.873518	14.993732	1.542354	13
	3	4.322994	6960.937500	0.001585	-0.000027	1.000000	0.001585	-0.960020	14.993783	1.542358	13
	4	4.323162	6164.062500	0.001586	-0.000029	1.000000	0.001586	-1.041000	14.993843	1.542360	13
	5	4.323352	5460.937500	0.001588	-0.000031	1.000000	0.001588	-1.132353	14.993812	1.542386	13
	6	0.702131	4851.562500	0.001590	-0.000034	1.000000	0.001590	-1.222740	14.993722	1.542406	13
	7	0.487145	4289.062500	0.001592	-0.000037	1.000000	0.001592	-1.326280	14.993964	1.542404	13
	8	0.487196	3782.487549	0.001594	-0.000039	1.000000	0.001595	-1.418614	14.993953	1.542406	13
	9	0.709052	3364.789551	0.001597	-0.000042	1.000000	0.001597	-1.519657	14.994161	1.542404	13
	10	0.482975	2976.562500	0.001599	-0.000046	1.000000	0.001600	-1.631580	14.994196	1.542397	13
	11	0.482527	2648.437500	0.001603	-0.000049	1.000000	0.001603	-1.752132	14.993902	1.542408	13
	12	0.702827	2343.750000	0.001606	-0.000052	1.000000	0.001606	-1.862333	14.994004	1.542409	13
	13	0.704006	2065.284668	0.001609	-0.000056	1.000000	0.001610	-1.983663	14.993744	1.542400	13
	14	0.487915	1833.230103	0.001612	-0.000059	1.000000	0.001614	-2.101126	14.993771	1.542410	13
	15	0.492886	1631.433838	0.001616	-0.000063	1.000000	0.001617	-2.233214	14.993441	1.542408	13
	16	0.716945	1433.555908	0.001620	-0.000068	1.000000	0.001621	-2.392353	14.994165	1.542415	13
	17	0.487687	1276.299438	0.001624	-0.000071	1.000000	0.001626	-2.517065	14.994473	1.542421	13
	18	0.928262	1125.919067	0.001629	-0.000076	1.000000	0.001631	-2.686628	14.993567	1.542427	13
	19	0.919241	997.834106	0.001634	-0.000082	1.000000	0.001636	-2.867042	14.994264	1.542453	13
	20	0.717495	887.439331	0.001640	-0.000086	1.000000	0.001642	-3.002575	14.994009	1.542532	13
	21	0.729547	781.250000	0.001645	-0.000092	1.000000	0.001648	-3.208757	14.994289	1.542505	13
	22	0.505416	691.964294	0.001651	-0.000098	1.000000	0.001654	-3.388663	14.994323	1.542525	13
	23	0.496397	614.381104	0.001657	-0.000104	1.000000	0.001661	-3.583017	14.994126	1.542521	13
	24	0.517445	547.605164	0.001664	-0.000110	1.000000	0.001667	-3.781789	14.994101	1.542526	13
	25	0.497670	482.536774	0.001671	-0.000117	1.000000	0.001675	-4.007437	14.992958	1.542528	13
	26	0.501865	428.185089	0.001678	-0.000124	1.000000	0.001683	-4.233877	14.992932	1.542529	13
	27	0.728050	379.464294	0.001686	-0.000132	1.000000	0.001691	-4.470776	14.993164	1.542521	13
	28	0.729151	334.821442	0.001695	-0.000140	1.000000	0.001701	-4.725486	14.993115	1.542526	13
	29	0.927838	298.713226	0.001704	-0.000148	1.000000	0.001710	-4.966885	14.992949	1.542531	13
	30	0.452634	262.661652	0.001714	-0.000158	1.000000	0.001721	-5.256277	14.993010	1.542519	13
	31	0.994682	234.375000	0.001724	-0.000167	1.000000	0.001732	-5.520819	14.992942	1.542521	13
	32	0.492164	206.801468	0.001735	-0.000177	1.000000	0.001744	-5.828117	14.992977	1.542513	13
	33	0.453439	183.423920	0.001746	-0.000188	1.000000	0.001757	-6.132171	14.993583	1.542515	13
	34	0.704750	162.438110	0.001759	-0.000199	1.000000	0.001771	-6.451655	14.993153	1.542533	13
	35	0.446679	143.914474	0.001773	-0.000211	1.000000	0.001785	-6.780666	14.992770	1.542526	13
	36	1.156082	127.180237	0.001788	-0.000224	1.000000	0.001802	-7.130063	14.993180	1.542518	13
	37	0.501229	112.680290	0.001804	-0.000237	1.000000	0.001819	-7.473820	14.992766	1.542524	13
	38	0.456767	100.160255	0.001820	-0.000250	1.000000	0.001837	-7.820964	14.993377	1.542542	13
	39	0.959310	88.778412	0.001838	-0.000264	1.000000	0.001857	-8.171366	14.992763	1.542535	13
	40	0.628947	78.649330	0.001858	-0.000278	1.000000	0.001879	-8.518990	14.993383	1.542533	13
	41	0.917239	69.616333	0.001879	-0.000293	1.000000	0.001902	-8.872035	14.993233	1.542547	13
	42	1.029747	61.677631	0.001902	-0.000308	1.000000	0.001927	-9.203088	14.993013	1.542547	13
	43	0.496940	54.505817	0.001927	-0.000323	1.000000	0.001954	-9.516365	14.992978	1.542527	13
	44	1.170983	48.491379	0.001951	-0.000338	1.000000	0.001980	-9.821344	14.993422	1.542557	13
	45	0.897732	42.873474	0.001978	-0.000353	1.000000	0.002010	-10.117284	14.992652	1.542543	13
	46	1.005275	38.006756	0.002006	-0.000367	1.000000	0.002039	-10.375113	14.993511	1.542545	13
	47	0.770938	33.642345	0.002036	-0.000381	1.000000	0.002071	-10.608665	14.993781	1.542499	13
	48	0.862043	29.793432	0.002066	-0.000396	1.000000	0.002103	-10.845816	14.993601	1.542521	13
	49	0.741055	26.334269	0.002097	-0.000411	1.000000	0.002137	-11.084937	14.992939	1.542471	13
	50	0.696451	23.437500	0.002128	-0.000424	1.000000	0.002170	-11.266383	14.992819	1.542508	13
	51	0.151518	20.741150	0.002229	-0.000386	1.000000	0.002262	-9.819530	14.995362	1.543265	13
	52	0.220126	18.310547	0.002233	-0.000425	1.000000	0.002273	-10.785901	14.994110	1.542876	13
	53	0.244105	16.276043	0.002268	-0.000439	1.000000	0.002310	-10.954303	14.994032	1.542851	13
	54	0.263873	14.378834	0.002307	-0.000453	1.000000	0.002351	-11.116023	14.994230	1.542852	13
	55	0.290606	12.737772	0.002345	-0.000469	1.000000	0.002392	-11.307796	14.994143	1.542830	13
	56	0.321631	11.268029	0.002385	-0.000487	1.000000	0.002435	-11.541692	14.993561	1.542796	13
	57	0.556251	10.016026	0.002407	-0.000517	1.000000	0.002461	-12.120691	14.993936	1.542626	13
	58	0.393558	8.877841	0.002471	-0.000518	1.000000	0.002525	-11.840215	14.993360	1.542762	13
	59	0.436329	7.864933	0.002519	-0.000534	1.000000	0.002575	-11.963054	14.993958	1.542735	13
	60	0.772653	6.975446	0.002547	-0.000565	1.000000	0.002609	-12.509397	14.993496	1.542550	13
	61	0.868242	6.151575	0.002601	-0.000580	1.000000	0.002665	-12.577497	14.993813	1.542509	13
	62	0.975475	5.476051	0.002655	-0.000593	1.000000	0.002720	-12.586587	14.993713	1.542484	13
	63	1.297326	4.842459	0.002711	-0.000605	1.000000	0.002778	-12.589709	14.993752	1.542437	13
	64	1.219831	4.300459	0.002773	-0.000609	1.000000	0.002839	-12.383996	14.993822	1.542408	13
	65	1.638134	3.792476	0.002833	-0.000616	1.000000	0.002899	-12.271581	14.993899	1.542370	13
	66	1.540350	3.367457	0.002897	-0.000612	1.000000	0.002961	-11.922862	14.993476	1.542354	13
	67	1.728501	2.989477	0.002958	-0.000607	1.000000	0.003020	-11.588088	14.993497	1.542328	13
	68	1.957379	2.639358	0.003021	-0.000597	1.000000	0.003079	-11.181013	14.993787	1.542296	13
	69	3.469478	2.343750	0.003065	-0.000584	1.000000	0.003120	-10.792887	15.026956	1.542341	13
	70	3.439644	2.068623	0.003126	-0.000565	1.000000	0.003177	-10.250615	15.024242	1.542328	13
	71	3.342916	1.825351	0.003183	-0.000542	1.000000	0.003229	-9.663939	15.021813	1.542305	13
	72	3.132255	1.625347	0.003232	-0.000516	1.000000	0.003273	-9.070006	15.021471	1.542305	13
	73	4.930139	1.436121	0.003280	-0.000495	1.000000	0.003317	-8.588371	15.008151	1.542241	13
	74	3.972145	1.276552	0.003326	-0.000466	1.000000	0.003358	-7.980096	15.010146	1.542393	13
	75	8.930161	1.126803	0.003365	-0.000446	1.000000	0.003394	-7.542696	14.998974	1.542279	13
	76	5.060204	0.999041	0.003399	-0.000412	1.000000	0.003424	-6.913510	15.003544	1.542281	13
	77	4.582328	0.883767	0.003432	-0.000382	1.000000	0.003453	-6.349462	15.004073	1.542283	13
	78	6.428904	0.784650	0.003459	-0.000359	1.000000	0.003478	-5.931402	14.999936	1.542259	13
	79	7.237784	0.696301	0.003482	-0.000334	1.000000	0.003498	-5.477762	14.998333	1.542269	13
	80	8.163373	0.616776	0.003504	-0.000309	1.000000	0.003518	-5.045855	14.997015	1.542267	13
	81	7.372253	0.547094	0.003524	-0.000283	1.000000	0.003535	-4.597698	14.997441	1.542274	13
	82	10.400436	0.483447	0.003541	-0.000262	1.000000	0.003550	-4.234946	14.996004	1.542339	13
	83	11.696434	0.429730	0.003554	-0.000241	1.000000	0.003562	-3.871463	14.995493	1.542304	13
	84	10.570644	0.380417	0.003566	-0.000221	1.000000	0.003573	-3.539628	14.995593	1.542319	13
	85	11.949781	0.336311	0.003577	-0.000203	1.000000	0.003583	-3.241369	14.995150	1.542322	13
	86	13.501830	0.297506	0.003587	-0.000185	1.000000	0.003592	-2.949561	14.994792	1.542357	13
	87	19.017383	0.263698	0.003596	-0.000171	1.000000	0.003600	-2.718015	14.994268	1.542388	13
	88	17.122891	0.234375	0.003601	-0.000156	1.000000	0.003604	-2.486904	14.993834	1.542397	13
	89	24.163076	0.207412	0.003607	-0.000143	1.000000	0.003609	-2.264222	14.993529	1.542398	13
