EXPLAIN											
TAG	GALVEIS										
TITLE	LABEL	GI-GALVEIS	Test &Identifier								
DATE	LABEL	2024-06-20	Date								
TIME	LABEL	8:00:23 AM	Time								
NOTES	NOTES		&Notes...								
	FCATS v19.0.1f5										
PSTAT	PSTAT	REF3000-42167	Potentiostat								
IDCREQ	QUANT	25.000000	DC & Current (A)								
FREQINIT	QUANT	10000.000000	Initial Freq&q. (Hz)								
FREQFINAL	QUANT	0.200000	Final Fre&q. (Hz)								
PTSPERDEC	QUANT	19.000000	Points/&decade								
IACREQ	QUANT	3.000000	AC & Current (A rms)								
AREA	QUANT	50.000000	&Area(cm^2)								
CONDIT	TWOPARAM	F	N/A	N/A	Conditionin&g	Time(s)	E(V)				
DELAY	TWOPARAM	F	N/A	N/A	Init. &Delay	Time(s)	Stab.(mV/s)				
SPEED	SELECTOR	Low Noise	&Optimizer for:								
ZGUESS	QUANT	0.010000	E&stimated z (ohms)								
PSTATMODEL	IQUANT	6	Pstat Model								
PSTATSECTION	LABEL	42167	Pstat Section								
PSTATSERIALNO	LABEL	42167	Pstat Serial Number								
CTRLMODE	IQUANT	0	Control Mode								
ELECTROMETER	IQUANT	0	RE=0 or CS=1								
IESTAB	IQUANT	0	I/E Stability								
CASPEED	IQUANT	4	Control Amp Speed								
CONVENTION	IQUANT	1	Current Convention								
ICHRANGE	IQUANT	2	Ich Range								
ICHRANGEMODE	TOGGLE	F	Ich Auto Range								
ICHOFFSETENABLE	TOGGLE	T	Ich Offest Enable								
ICHOFFSET	QUANT	0.000000	Ich Offset (V)								
ICHFILTER	IQUANT	2	Ich Filter								
VCHRANGE	IQUANT	2	Vch Range								
VCHRANGEMODE	TOGGLE	F	Vch Auto Range								
VCHOFFSETENABLE	TOGGLE	T	Vch Offeset Enable								
VCHOFFSET	QUANT	0.000000	Ich Offset (V)								
VCHFILTER	IQUANT	2	Vch filter								
ACHRANGE	IQUANT	2	Ach range								
ACHOFFSETENABLE	TOGGLE	F	Ach Offset Enable								
ACHOFFSET	QUANT	0.000000	Ach Offset (V)								
ACHFILTER	IQUANT	1	Ach Filter								
IERANGELOWERLIMIT	IQUANT	0	I/E Range Lower Limit								
IERANGEMODE	TOGGLE	F	I/E Autorange								
IERANGE	QUANT	13.000000	I/E Range								
POSFEEDENABLE	TOGGLE	F	Positive Feedback IR Comp								
POSFEEDRESISTANCE	QUANT	0.000000	Positive Feedback Resistance (ohm)								
ACHSELECT	IQUANT	0	Ach Select								
SENSECABLEID	IQUANT	14	Sense Cable ID								
DCCALDATE	LABEL	4/17/2024	DC Calibration Date								
ACCALDATE	LABEL	12/21/2023	AC Calibration Date								
THERMOSELECT	IQUANT	0	Thermo Select								
FRAMEWORKVERSION	LABEL	3.5.5.0	Framework Version								
COMPLIANCEVOLTAGE	IQUANT	0	Compliance Voltage								
ZCURVE	TABLE										
	Pt	Time	Freq	Zreal	Zimag	Zsig	Zmod	Zphz	Idc	Vdc	IERange
	#	s	Hz	ohm	ohm	V	ohm	°	A	V	#
	0	1.011620	10007.812500	0.000838	-0.000016	1.000000	0.000838	-1.113872	24.994101	1.494699	13
	1	4.323163	8882.812500	0.000837	-0.000019	1.000000	0.000838	-1.327322	24.994293	1.494688	13
	2	4.323472	7851.562500	0.000839	-0.000022	1.000000	0.000839	-1.535738	24.994450	1.494729	13
	3	4.323739	6960.937500	0.000840	-0.000026	1.000000	0.000840	-1.741134	24.994480	1.494751	13
	4	4.323192	6164.062500	0.000842	-0.000029	1.000000	0.000842	-1.941973	24.994526	1.494802	13
	5	4.322347	5460.937500	0.000844	-0.000032	1.000000	0.000844	-2.164644	24.994528	1.494826	13
	6	4.323447	4851.562500	0.000846	-0.000035	1.000000	0.000847	-2.373062	24.994490	1.494870	13
	7	4.322137	4289.062500	0.000849	-0.000038	1.000000	0.000850	-2.562748	24.994434	1.494888	13
	8	4.365121	3782.487549	0.000852	-0.000041	1.000000	0.000853	-2.768046	24.994762	1.494935	13
	9	4.364852	3364.789551	0.000855	-0.000044	1.000000	0.000856	-2.947527	24.994854	1.494973	13
	10	4.322938	2976.562500	0.000859	-0.000047	1.000000	0.000860	-3.131177	24.994352	1.495042	13
	11	1.549488	2648.437500	0.000862	-0.000050	1.000000	0.000863	-3.312948	24.994383	1.495077	13
	12	0.703031	2343.750000	0.000866	-0.000053	1.000000	0.000867	-3.476755	24.994652	1.495047	13
	13	0.488037	2065.284668	0.000870	-0.000056	1.000000	0.000872	-3.713883	24.994814	1.495046	13
	14	0.487184	1833.230103	0.000874	-0.000059	1.000000	0.000876	-3.874048	24.994692	1.495056	13
	15	0.492168	1631.433838	0.000877	-0.000062	1.000000	0.000880	-4.073691	24.994328	1.495087	13
	16	0.716195	1433.555908	0.000882	-0.000066	1.000000	0.000885	-4.268880	24.994606	1.495099	13
	17	0.487917	1276.299438	0.000887	-0.000069	1.000000	0.000890	-4.446548	24.994604	1.495090	13
	18	1.145246	1125.919067	0.000891	-0.000073	1.000000	0.000894	-4.675345	24.994295	1.495139	13
	19	0.703302	997.834106	0.000896	-0.000077	1.000000	0.000900	-4.888452	24.994711	1.495172	13
	20	0.495971	887.439331	0.000901	-0.000081	1.000000	0.000905	-5.117953	24.994665	1.495148	13
	21	0.505050	781.250000	0.000906	-0.000086	1.000000	0.000910	-5.396688	24.995035	1.495179	13
	22	0.504816	691.964294	0.000913	-0.000090	1.000000	0.000917	-5.649226	24.995092	1.495169	13
	23	0.935014	614.381104	0.000918	-0.000095	1.000000	0.000923	-5.890657	24.994701	1.495139	13
	24	0.516592	547.605164	0.000924	-0.000100	1.000000	0.000930	-6.191827	24.994978	1.495123	13
	25	0.491145	482.536774	0.000930	-0.000106	1.000000	0.000937	-6.499297	24.993557	1.495144	13
	26	0.722144	428.185089	0.000937	-0.000112	1.000000	0.000944	-6.811204	24.993422	1.495156	13
	27	0.511663	379.464294	0.000944	-0.000118	1.000000	0.000952	-7.142168	24.993649	1.495199	13
	28	0.951528	334.821442	0.000953	-0.000126	1.000000	0.000961	-7.515875	24.993679	1.495212	13
	29	0.492461	298.713226	0.000960	-0.000133	1.000000	0.000969	-7.871978	24.993530	1.495222	13
	30	1.050784	262.661652	0.000970	-0.000141	1.000000	0.000980	-8.278533	24.993608	1.495231	13
	31	0.526888	234.375000	0.000979	-0.000149	1.000000	0.000990	-8.660963	24.993599	1.495278	13
	32	0.492485	206.801468	0.000990	-0.000158	1.000000	0.001002	-9.092098	24.993504	1.495240	13
	33	0.450850	183.423920	0.001001	-0.000168	1.000000	0.001015	-9.510037	24.993807	1.495212	13
	34	0.919507	162.438110	0.001014	-0.000177	1.000000	0.001029	-9.926217	24.993635	1.495197	13
	35	0.445941	143.914474	0.001027	-0.000187	1.000000	0.001044	-10.337803	24.993423	1.495242	13
	36	0.937880	127.180237	0.001043	-0.000198	1.000000	0.001061	-10.740847	24.993629	1.495276	13
	37	0.943955	112.680290	0.001059	-0.000208	1.000000	0.001079	-11.105680	24.993433	1.495273	13
	38	0.456329	100.160255	0.001076	-0.000218	1.000000	0.001098	-11.435857	24.993605	1.495316	13
	39	0.509714	88.778412	0.001095	-0.000227	1.000000	0.001118	-11.701486	24.993385	1.495319	13
	40	1.394069	78.649330	0.001115	-0.000236	1.000000	0.001140	-11.947859	24.993784	1.495314	13
	41	0.704354	69.616333	0.001136	-0.000244	1.000000	0.001162	-12.132708	24.993626	1.495334	13
	42	0.446905	61.677631	0.001158	-0.000252	1.000000	0.001185	-12.277038	24.993116	1.495296	13
	43	0.497564	54.505817	0.001182	-0.000257	1.000000	0.001209	-12.281616	24.993683	1.495357	13
	44	0.985174	48.491379	0.001203	-0.000263	1.000000	0.001231	-12.324658	24.993706	1.495337	13
	45	0.686241	42.873474	0.001227	-0.000267	1.000000	0.001256	-12.293762	24.993771	1.495361	13
	46	1.240522	38.006756	0.001251	-0.000271	1.000000	0.001280	-12.227895	24.993589	1.495371	13
	47	0.949181	33.642345	0.001274	-0.000274	1.000000	0.001303	-12.119723	24.993715	1.495411	13
	48	1.265222	29.793432	0.001296	-0.000276	1.000000	0.001325	-12.000610	24.993738	1.495418	13
	49	0.512627	26.334269	0.001317	-0.000278	1.000000	0.001346	-11.910757	24.993919	1.495416	13
	50	0.270315	23.437500	0.001340	-0.000280	1.000000	0.001369	-11.789105	24.994019	1.495414	13
	51	0.151625	20.741150	0.001401	-0.000252	1.000000	0.001424	-10.190101	24.995586	1.495734	13
	52	0.163562	18.310547	0.001418	-0.000256	1.000000	0.001441	-10.223579	24.995071	1.495662	13
	53	0.362775	16.276043	0.001417	-0.000281	1.000000	0.001444	-11.213551	24.994341	1.495498	13
	54	0.264408	14.378834	0.001450	-0.000274	1.000000	0.001476	-10.682816	24.994724	1.495575	13
	55	0.450224	12.737772	0.001463	-0.000289	1.000000	0.001491	-11.165042	24.994314	1.495509	13
	56	0.411835	11.268029	0.001493	-0.000292	1.000000	0.001521	-11.086181	24.994110	1.495490	13
	57	0.654496	10.016026	0.001511	-0.000299	1.000000	0.001540	-11.184435	24.994257	1.495440	13
	58	0.392409	8.877841	0.001548	-0.000292	1.000000	0.001575	-10.686109	24.994154	1.495534	13
	59	0.563773	7.864933	0.001566	-0.000299	1.000000	0.001594	-10.793619	24.994360	1.495538	13
	60	0.915930	6.975446	0.001585	-0.000308	1.000000	0.001615	-11.007408	24.993967	1.495495	13
	61	1.031949	6.151575	0.001613	-0.000313	1.000000	0.001643	-10.989133	24.994267	1.495462	13
	62	2.246956	5.476051	0.001641	-0.000317	1.000000	0.001671	-10.917190	24.994184	1.495453	13
	63	1.500684	4.842459	0.001674	-0.000314	1.000000	0.001703	-10.625894	24.994165	1.495522	13
	64	1.916990	4.300459	0.001705	-0.000313	1.000000	0.001733	-10.395997	24.994221	1.495516	13
	65	2.429452	3.792476	0.001736	-0.000307	1.000000	0.001763	-10.028774	24.994228	1.495514	13
	66	1.541494	3.367457	0.001768	-0.000296	1.000000	0.001793	-9.517485	24.994032	1.495569	13
	67	2.066780	2.989477	0.001796	-0.000288	1.000000	0.001819	-9.121418	24.993954	1.495540	13
	68	2.707550	2.639358	0.001826	-0.000277	1.000000	0.001847	-8.633066	24.994318	1.495569	13
	69	2.616021	2.343750	0.001849	-0.000264	1.000000	0.001867	-8.139853	25.032734	1.495682	13
	70	3.439540	2.068623	0.001870	-0.000243	1.000000	0.001886	-7.410745	25.020384	1.495663	13
	71	3.890839	1.825351	0.001893	-0.000232	1.000000	0.001908	-6.997656	25.014183	1.495698	13
	72	3.138381	1.625347	0.001907	-0.000217	1.000000	0.001919	-6.477837	25.017885	1.495722	13
	73	3.537956	1.436121	0.001923	-0.000194	1.000000	0.001933	-5.755477	25.012884	1.495742	13
	74	3.974555	1.276552	0.001939	-0.000180	1.000000	0.001947	-5.293087	25.008472	1.495761	13
	75	5.380063	1.126803	0.001956	-0.000171	1.000000	0.001964	-5.005512	25.002851	1.495788	13
	76	5.061666	0.999041	0.001965	-0.000158	1.000000	0.001972	-4.608852	25.002785	1.495793	13
	77	4.581937	0.883767	0.001983	-0.000141	1.000000	0.001988	-4.056296	25.003029	1.495858	13
	78	5.154146	0.784650	0.001988	-0.000129	1.000000	0.001992	-3.701528	25.001314	1.495882	13
	79	7.238663	0.696301	0.001991	-0.000120	1.000000	0.001995	-3.439765	24.998386	1.495903	13
	80	8.163406	0.616776	0.002000	-0.000112	1.000000	0.002003	-3.194656	24.997259	1.495939	13
	81	7.368048	0.547094	0.002009	-0.000103	1.000000	0.002012	-2.924769	24.997576	1.495989	13
	82	10.399093	0.483447	0.002012	-0.000094	1.000000	0.002014	-2.662940	24.996422	1.496025	13
	83	11.692301	0.429730	0.002014	-0.000086	1.000000	0.002016	-2.440749	24.995836	1.496092	13
	84	10.570310	0.380417	0.002021	-0.000077	1.000000	0.002023	-2.176418	24.995903	1.496171	13
	85	11.948863	0.336311	0.002021	-0.000070	1.000000	0.002022	-1.987849	24.995594	1.496239	13
	86	16.862662	0.297506	0.002024	-0.000065	1.000000	0.002025	-1.840557	24.994997	1.496348	13
	87	15.226562	0.263698	0.002027	-0.000060	1.000000	0.002028	-1.691860	24.995014	1.496443	13
	88	21.393779	0.234375	0.002027	-0.000057	1.000000	0.002028	-1.621168	24.994280	1.496524	13
	89	19.342800	0.207412	0.002031	-0.000054	1.000000	0.002032	-1.526105	24.994318	1.496644	13
