EXPLAIN											
TAG	GALVEIS										
TITLE	LABEL	GI-GALVEIS	Test &Identifier								
DATE	LABEL	2024-06-22	Date								
TIME	LABEL	5:31:46 AM	Time								
NOTES	NOTES		&Notes...								
	FCATS v19.0.1f5										
PSTAT	PSTAT	REF3000-42167	Potentiostat								
IDCREQ	QUANT	25.000000	DC & Current (A)								
FREQINIT	QUANT	10000.000000	Initial Freq&q. (Hz)								
FREQFINAL	QUANT	0.200000	Final Fre&q. (Hz)								
PTSPERDEC	QUANT	19.000000	Points/&decade								
IACREQ	QUANT	3.000000	AC & Current (A rms)								
AREA	QUANT	50.000000	&Area(cm^2)								
CONDIT	TWOPARAM	F	N/A	N/A	Conditionin&g	Time(s)	E(V)				
DELAY	TWOPARAM	F	N/A	N/A	Init. &Delay	Time(s)	Stab.(mV/s)				
SPEED	SELECTOR	Low Noise	&Optimizer for:								
ZGUESS	QUANT	0.010000	E&stimated z (ohms)								
PSTATMODEL	IQUANT	6	Pstat Model								
PSTATSECTION	LABEL	42167	Pstat Section								
PSTATSERIALNO	LABEL	42167	Pstat Serial Number								
CTRLMODE	IQUANT	0	Control Mode								
ELECTROMETER	IQUANT	0	RE=0 or CS=1								
IESTAB	IQUANT	0	I/E Stability								
CASPEED	IQUANT	4	Control Amp Speed								
CONVENTION	IQUANT	1	Current Convention								
ICHRANGE	IQUANT	2	Ich Range								
ICHRANGEMODE	TOGGLE	F	Ich Auto Range								
ICHOFFSETENABLE	TOGGLE	T	Ich Offest Enable								
ICHOFFSET	QUANT	0.000000	Ich Offset (V)								
ICHFILTER	IQUANT	2	Ich Filter								
VCHRANGE	IQUANT	2	Vch Range								
VCHRANGEMODE	TOGGLE	F	Vch Auto Range								
VCHOFFSETENABLE	TOGGLE	T	Vch Offeset Enable								
VCHOFFSET	QUANT	0.000000	Ich Offset (V)								
VCHFILTER	IQUANT	2	Vch filter								
ACHRANGE	IQUANT	2	Ach range								
ACHOFFSETENABLE	TOGGLE	F	Ach Offset Enable								
ACHOFFSET	QUANT	0.000000	Ach Offset (V)								
ACHFILTER	IQUANT	1	Ach Filter								
IERANGELOWERLIMIT	IQUANT	0	I/E Range Lower Limit								
IERANGEMODE	TOGGLE	F	I/E Autorange								
IERANGE	QUANT	13.000000	I/E Range								
POSFEEDENABLE	TOGGLE	F	Positive Feedback IR Comp								
POSFEEDRESISTANCE	QUANT	0.000000	Positive Feedback Resistance (ohm)								
ACHSELECT	IQUANT	0	Ach Select								
SENSECABLEID	IQUANT	14	Sense Cable ID								
DCCALDATE	LABEL	4/17/2024	DC Calibration Date								
ACCALDATE	LABEL	12/21/2023	AC Calibration Date								
THERMOSELECT	IQUANT	0	Thermo Select								
FRAMEWORKVERSION	LABEL	3.5.5.0	Framework Version								
COMPLIANCEVOLTAGE	IQUANT	0	Compliance Voltage								
ZCURVE	TABLE										
	Pt	Time	Freq	Zreal	Zimag	Zsig	Zmod	Zphz	Idc	Vdc	IERange
	#	s	Hz	ohm	ohm	V	ohm	°	A	V	#
	0	0.798746	10007.812500	0.002345	-0.000042	1.000000	0.002345	-1.022241	24.994257	1.578386	13
	1	4.322514	8882.812500	0.002342	-0.000045	1.000000	0.002343	-1.099193	24.994223	1.578431	13
	2	4.322341	7851.562500	0.002344	-0.000047	1.000000	0.002345	-1.160244	24.994247	1.578539	13
	3	4.323506	6960.937500	0.002346	-0.000050	1.000000	0.002347	-1.224599	24.994160	1.578582	13
	4	4.323305	6164.062500	0.002348	-0.000053	1.000000	0.002348	-1.301524	24.994108	1.578633	13
	5	4.322001	5460.937500	0.002351	-0.000056	1.000000	0.002351	-1.374847	24.994249	1.578700	13
	6	4.325831	4851.562500	0.002354	-0.000060	1.000000	0.002355	-1.452250	24.994297	1.578784	13
	7	4.322476	4289.062500	0.002357	-0.000063	1.000000	0.002358	-1.530702	24.994274	1.578844	13
	8	4.366583	3782.487549	0.002361	-0.000067	1.000000	0.002362	-1.628186	24.994438	1.578926	13
	9	4.365662	3364.789551	0.002366	-0.000071	1.000000	0.002367	-1.716781	24.994532	1.579030	13
	10	4.323861	2976.562500	0.002370	-0.000075	1.000000	0.002371	-1.817440	24.994152	1.579082	13
	11	0.909883	2648.437500	0.002375	-0.000079	1.000000	0.002376	-1.908533	24.994112	1.579145	13
	12	0.487305	2343.750000	0.002380	-0.000083	1.000000	0.002382	-2.003279	24.994549	1.579168	13
	13	0.488962	2065.284668	0.002386	-0.000089	1.000000	0.002387	-2.129391	24.994175	1.579149	13
	14	0.486227	1833.230103	0.002391	-0.000094	1.000000	0.002393	-2.240022	24.994322	1.579165	13
	15	1.798601	1631.433838	0.002397	-0.000099	1.000000	0.002400	-2.370062	24.994255	1.579190	13
	16	0.496343	1433.555908	0.002405	-0.000106	1.000000	0.002407	-2.516104	24.994329	1.579203	13
	17	0.490837	1276.299438	0.002411	-0.000111	1.000000	0.002414	-2.641941	24.994408	1.579218	13
	18	0.709320	1125.919067	0.002419	-0.000117	1.000000	0.002422	-2.777406	24.994186	1.579242	13
	19	0.918341	997.834106	0.002427	-0.000124	1.000000	0.002430	-2.924227	24.994297	1.579244	13
	20	0.496143	887.439331	0.002435	-0.000130	1.000000	0.002439	-3.066556	24.994596	1.579254	13
	21	0.504137	781.250000	0.002445	-0.000138	1.000000	0.002448	-3.237478	24.994535	1.579253	13
	22	0.729509	691.964294	0.002454	-0.000146	1.000000	0.002458	-3.400775	24.994864	1.579257	13
	23	0.495776	614.381104	0.002464	-0.000154	1.000000	0.002469	-3.572532	24.994608	1.579269	13
	24	0.513007	547.605164	0.002474	-0.000162	1.000000	0.002479	-3.735711	24.994709	1.579269	13
	25	0.926733	482.536774	0.002485	-0.000171	1.000000	0.002491	-3.924872	24.993259	1.579262	13
	26	0.501866	428.185089	0.002497	-0.000179	1.000000	0.002503	-4.110579	24.993200	1.579252	13
	27	0.531508	379.464294	0.002510	-0.000189	1.000000	0.002517	-4.299869	24.993338	1.579272	13
	28	0.952343	334.821442	0.002524	-0.000199	1.000000	0.002532	-4.499093	24.993324	1.579289	13
	29	0.490876	298.713226	0.002538	-0.000208	1.000000	0.002547	-4.687676	24.993338	1.579315	13
	30	0.848668	262.661652	0.002554	-0.000219	1.000000	0.002564	-4.895870	24.993389	1.579322	13
	31	0.525709	234.375000	0.002570	-0.000229	1.000000	0.002580	-5.089251	24.993362	1.579332	13
	32	0.949691	206.801468	0.002588	-0.000240	1.000000	0.002599	-5.295315	24.993334	1.579355	13
	33	0.645273	183.423920	0.002606	-0.000251	1.000000	0.002618	-5.502395	24.993574	1.579369	13
	34	0.488084	162.438110	0.002625	-0.000262	1.000000	0.002638	-5.704230	24.993444	1.579369	13
	35	0.640070	143.914474	0.002646	-0.000274	1.000000	0.002660	-5.902444	24.993147	1.579406	13
	36	0.497793	127.180237	0.002667	-0.000285	1.000000	0.002682	-6.106738	24.993311	1.579394	13
	37	0.721785	112.680290	0.002689	-0.000297	1.000000	0.002705	-6.305169	24.993164	1.579375	13
	38	0.461195	100.160255	0.002712	-0.000308	1.000000	0.002730	-6.489610	24.993500	1.579380	13
	39	0.957760	88.778412	0.002737	-0.000320	1.000000	0.002755	-6.673152	24.993422	1.579397	13
	40	1.010346	78.649330	0.002763	-0.000332	1.000000	0.002783	-6.856944	24.993626	1.579417	13
	41	0.499957	69.616333	0.002790	-0.000344	1.000000	0.002811	-7.029591	24.993292	1.579397	13
	42	0.446659	61.677631	0.002819	-0.000356	1.000000	0.002842	-7.196744	24.993000	1.579410	13
	43	0.936320	54.505817	0.002850	-0.000367	1.000000	0.002874	-7.340090	24.993319	1.579407	13
	44	0.614657	48.491379	0.002881	-0.000378	1.000000	0.002906	-7.471603	24.993385	1.579406	13
	45	1.320532	42.873474	0.002915	-0.000388	1.000000	0.002941	-7.572857	24.993589	1.579430	13
	46	0.767796	38.006756	0.002950	-0.000397	1.000000	0.002977	-7.656822	24.993437	1.579430	13
	47	0.770394	33.642345	0.002987	-0.000405	1.000000	0.003014	-7.714469	24.993544	1.579427	13
	48	0.459372	29.793432	0.003026	-0.000411	1.000000	0.003054	-7.736971	24.993855	1.579457	13
	49	0.512573	26.334269	0.003066	-0.000415	1.000000	0.003094	-7.714127	24.994061	1.579476	13
	50	0.269744	23.437500	0.003106	-0.000417	1.000000	0.003134	-7.653645	24.993006	1.579451	13
	51	0.151807	20.741150	0.003209	-0.000348	1.000000	0.003228	-6.194823	24.995155	1.579860	13
	52	0.219812	18.310547	0.003217	-0.000380	1.000000	0.003240	-6.727451	24.994181	1.579631	13
	53	0.239304	16.276043	0.003253	-0.000374	1.000000	0.003275	-6.563519	24.994358	1.579612	13
	54	0.334804	14.378834	0.003284	-0.000378	1.000000	0.003306	-6.563800	24.994265	1.579555	13
	55	0.291540	12.737772	0.003327	-0.000359	1.000000	0.003346	-6.164544	24.994383	1.579566	13
	56	0.322351	11.268029	0.003360	-0.000351	1.000000	0.003378	-5.967609	24.993864	1.579547	13
	57	0.454553	10.016026	0.003384	-0.000349	1.000000	0.003402	-5.892927	24.994200	1.579486	13
	58	0.506980	8.877841	0.003414	-0.000336	1.000000	0.003431	-5.615132	24.993872	1.579479	13
	59	0.568197	7.864933	0.003443	-0.000323	1.000000	0.003458	-5.355014	24.994074	1.579479	13
	60	1.633182	6.975446	0.003463	-0.000317	1.000000	0.003477	-5.237426	24.993822	1.579439	13
	61	2.007544	6.151575	0.003487	-0.000302	1.000000	0.003500	-4.952428	24.994020	1.579448	13
	62	1.158663	5.476051	0.003510	-0.000285	1.000000	0.003521	-4.644730	24.994101	1.579460	13
	63	1.294571	4.842459	0.003531	-0.000270	1.000000	0.003541	-4.374759	24.993990	1.579486	13
	64	1.687168	4.300459	0.003549	-0.000258	1.000000	0.003558	-4.161485	24.994108	1.579498	13
	65	1.901654	3.792476	0.003567	-0.000244	1.000000	0.003575	-3.920776	24.994188	1.579522	13
	66	1.570406	3.367457	0.003584	-0.000231	1.000000	0.003592	-3.690301	24.993961	1.579557	13
	67	2.063011	2.989477	0.003599	-0.000221	1.000000	0.003605	-3.512176	24.993938	1.579611	13
	68	3.878119	2.639358	0.003612	-0.000212	1.000000	0.003619	-3.353389	24.994181	1.579657	13
	69	4.750175	2.343750	0.003623	-0.000199	1.000000	0.003629	-3.146246	25.014349	1.579803	13
	70	3.923919	2.068623	0.003637	-0.000191	1.000000	0.003642	-2.998552	25.016470	1.579881	13
	71	4.990771	1.825351	0.003652	-0.000183	1.000000	0.003657	-2.863742	25.008955	1.579928	13
	72	3.747239	1.625347	0.003662	-0.000174	1.000000	0.003666	-2.725180	25.013058	1.580013	13
	73	3.538332	1.436121	0.003675	-0.000166	1.000000	0.003679	-2.589626	25.012215	1.580088	13
	74	5.541360	1.276552	0.003686	-0.000161	1.000000	0.003690	-2.508237	25.003618	1.580096	13
	75	5.381012	1.126803	0.003699	-0.000155	1.000000	0.003702	-2.397549	25.002518	1.580192	13
	76	5.060682	0.999041	0.003707	-0.000148	1.000000	0.003710	-2.288795	25.002527	1.580181	13
	77	5.714371	0.883767	0.003716	-0.000142	1.000000	0.003719	-2.192955	25.000666	1.580209	13
	78	6.449312	0.784650	0.003722	-0.000136	1.000000	0.003725	-2.096734	24.999264	1.580081	13
	79	5.802289	0.696301	0.003729	-0.000132	1.000000	0.003731	-2.022991	24.999628	1.580148	13
	80	6.542494	0.616776	0.003735	-0.000127	1.000000	0.003737	-1.943012	24.998117	1.580183	13
	81	7.369240	0.547094	0.003744	-0.000119	1.000000	0.003746	-1.814267	24.997370	1.580176	13
	82	10.398116	0.483447	0.003749	-0.000117	1.000000	0.003751	-1.795062	24.996082	1.580265	13
	83	9.364467	0.429730	0.003751	-0.000113	1.000000	0.003753	-1.720670	24.996058	1.580315	13
	84	13.199465	0.380417	0.003759	-0.000108	1.000000	0.003761	-1.650359	24.995131	1.580352	13
	85	11.954878	0.336311	0.003765	-0.000104	1.000000	0.003767	-1.576882	24.995220	1.580446	13
	86	13.501196	0.297506	0.003774	-0.000097	1.000000	0.003775	-1.475988	24.994946	1.580504	13
	87	19.019576	0.263698	0.003775	-0.000097	1.000000	0.003776	-1.468037	24.994499	1.580558	13
	88	17.122194	0.234375	0.003777	-0.000093	1.000000	0.003778	-1.414104	24.994207	1.580565	13
	89	19.347566	0.207412	0.003775	-0.000089	1.000000	0.003776	-1.354107	24.993988	1.580495	13
