EXPLAIN											
TAG	GALVEIS										
TITLE	LABEL	GI-GALVEIS	Test &Identifier								
DATE	LABEL	2024-06-22	Date								
TIME	LABEL	5:38:19 AM	Time								
NOTES	NOTES		&Notes...								
	FCATS v19.0.1f5										
PSTAT	PSTAT	REF3000-42167	Potentiostat								
IDCREQ	QUANT	15.000000	DC & Current (A)								
FREQINIT	QUANT	10000.000000	Initial Freq&q. (Hz)								
FREQFINAL	QUANT	0.200000	Final Fre&q. (Hz)								
PTSPERDEC	QUANT	19.000000	Points/&decade								
IACREQ	QUANT	3.500000	AC & Current (A rms)								
AREA	QUANT	50.000000	&Area(cm^2)								
CONDIT	TWOPARAM	F	N/A	N/A	Conditionin&g	Time(s)	E(V)				
DELAY	TWOPARAM	F	N/A	N/A	Init. &Delay	Time(s)	Stab.(mV/s)				
SPEED	SELECTOR	Low Noise	&Optimizer for:								
ZGUESS	QUANT	0.010000	E&stimated z (ohms)								
PSTATMODEL	IQUANT	6	Pstat Model								
PSTATSECTION	LABEL	42167	Pstat Section								
PSTATSERIALNO	LABEL	42167	Pstat Serial Number								
CTRLMODE	IQUANT	0	Control Mode								
ELECTROMETER	IQUANT	0	RE=0 or CS=1								
IESTAB	IQUANT	0	I/E Stability								
CASPEED	IQUANT	4	Control Amp Speed								
CONVENTION	IQUANT	1	Current Convention								
ICHRANGE	IQUANT	2	Ich Range								
ICHRANGEMODE	TOGGLE	F	Ich Auto Range								
ICHOFFSETENABLE	TOGGLE	T	Ich Offest Enable								
ICHOFFSET	QUANT	0.000000	Ich Offset (V)								
ICHFILTER	IQUANT	2	Ich Filter								
VCHRANGE	IQUANT	2	Vch Range								
VCHRANGEMODE	TOGGLE	F	Vch Auto Range								
VCHOFFSETENABLE	TOGGLE	T	Vch Offeset Enable								
VCHOFFSET	QUANT	0.000000	Ich Offset (V)								
VCHFILTER	IQUANT	2	Vch filter								
ACHRANGE	IQUANT	2	Ach range								
ACHOFFSETENABLE	TOGGLE	F	Ach Offset Enable								
ACHOFFSET	QUANT	0.000000	Ach Offset (V)								
ACHFILTER	IQUANT	1	Ach Filter								
IERANGELOWERLIMIT	IQUANT	0	I/E Range Lower Limit								
IERANGEMODE	TOGGLE	F	I/E Autorange								
IERANGE	QUANT	13.000000	I/E Range								
POSFEEDENABLE	TOGGLE	F	Positive Feedback IR Comp								
POSFEEDRESISTANCE	QUANT	0.000000	Positive Feedback Resistance (ohm)								
ACHSELECT	IQUANT	0	Ach Select								
SENSECABLEID	IQUANT	14	Sense Cable ID								
DCCALDATE	LABEL	4/17/2024	DC Calibration Date								
ACCALDATE	LABEL	12/21/2023	AC Calibration Date								
THERMOSELECT	IQUANT	0	Thermo Select								
FRAMEWORKVERSION	LABEL	3.5.5.0	Framework Version								
COMPLIANCEVOLTAGE	IQUANT	0	Compliance Voltage								
ZCURVE	TABLE										
	Pt	Time	Freq	Zreal	Zimag	Zsig	Zmod	Zphz	Idc	Vdc	IERange
	#	s	Hz	ohm	ohm	V	ohm	°	A	V	#
	0	1.228855	10007.812500	0.002264	-0.000043	1.000000	0.002265	-1.099338	14.994024	1.540461	13
	1	4.322480	8882.812500	0.002262	-0.000046	1.000000	0.002262	-1.174978	14.994233	1.540503	13
	2	4.323505	7851.562500	0.002264	-0.000049	1.000000	0.002264	-1.251159	14.994120	1.540498	13
	3	4.323086	6960.937500	0.002266	-0.000052	1.000000	0.002266	-1.325114	14.994178	1.540472	13
	4	4.322392	6164.062500	0.002268	-0.000056	1.000000	0.002268	-1.407772	14.994181	1.540471	13
	5	4.323764	5460.937500	0.002270	-0.000059	1.000000	0.002271	-1.492144	14.994221	1.540488	13
	6	0.697136	4851.562500	0.002274	-0.000063	1.000000	0.002274	-1.586798	14.994189	1.540497	13
	7	0.484918	4289.062500	0.002278	-0.000066	1.000000	0.002279	-1.671979	14.994205	1.540500	13
	8	0.487992	3782.487549	0.002282	-0.000071	1.000000	0.002283	-1.791108	14.994436	1.540493	13
	9	0.488957	3364.789551	0.002287	-0.000075	1.000000	0.002288	-1.883933	14.994613	1.540485	13
	10	0.499303	2976.562500	0.002291	-0.000080	1.000000	0.002293	-2.003087	14.994086	1.540478	13
	11	0.911057	2648.437500	0.002296	-0.000085	1.000000	0.002298	-2.110470	14.994295	1.540482	13
	12	0.487593	2343.750000	0.002302	-0.000090	1.000000	0.002304	-2.230471	14.994291	1.540503	13
	13	0.488714	2065.284668	0.002308	-0.000095	1.000000	0.002310	-2.359160	14.994350	1.540492	13
	14	0.702555	1833.230103	0.002314	-0.000100	1.000000	0.002316	-2.484818	14.994444	1.540504	13
	15	0.492575	1631.433838	0.002320	-0.000106	1.000000	0.002323	-2.627422	14.994143	1.540512	13
	16	0.495104	1433.555908	0.002328	-0.000113	1.000000	0.002331	-2.772018	14.994700	1.540512	13
	17	0.488198	1276.299438	0.002335	-0.000119	1.000000	0.002338	-2.907739	14.994257	1.540502	13
	18	0.709558	1125.919067	0.002344	-0.000126	1.000000	0.002347	-3.085155	14.994096	1.540503	13
	19	0.920578	997.834106	0.002352	-0.000133	1.000000	0.002356	-3.235118	14.994138	1.540504	13
	20	0.497900	887.439331	0.002360	-0.000141	1.000000	0.002365	-3.413494	14.994913	1.540511	13
	21	0.505168	781.250000	0.002370	-0.000149	1.000000	0.002375	-3.596221	14.994541	1.540508	13
	22	0.505606	691.964294	0.002381	-0.000157	1.000000	0.002387	-3.767472	14.994726	1.540512	13
	23	0.716017	614.381104	0.002391	-0.000165	1.000000	0.002397	-3.959210	14.994330	1.540503	13
	24	0.970785	547.605164	0.002402	-0.000174	1.000000	0.002409	-4.148075	14.994895	1.540513	13
	25	0.926070	482.536774	0.002414	-0.000184	1.000000	0.002421	-4.355800	14.993391	1.540527	13
	26	0.722349	428.185089	0.002427	-0.000194	1.000000	0.002434	-4.560493	14.993315	1.540529	13
	27	0.505136	379.464294	0.002440	-0.000204	1.000000	0.002449	-4.773376	14.993534	1.540534	13
	28	0.504977	334.821442	0.002455	-0.000215	1.000000	0.002464	-5.003282	14.993437	1.540534	13
	29	0.493817	298.713226	0.002469	-0.000225	1.000000	0.002479	-5.214873	14.993301	1.540521	13
	30	0.650749	262.661652	0.002486	-0.000238	1.000000	0.002498	-5.463389	14.993428	1.540523	13
	31	0.760808	234.375000	0.002503	-0.000249	1.000000	0.002515	-5.687547	14.993437	1.540534	13
	32	0.531552	206.801468	0.002521	-0.000262	1.000000	0.002535	-5.933926	14.993402	1.540546	13
	33	0.449019	183.423920	0.002540	-0.000275	1.000000	0.002555	-6.175199	14.993619	1.540553	13
	34	0.488754	162.438110	0.002560	-0.000288	1.000000	0.002577	-6.422203	14.993610	1.540564	13
	35	0.664295	143.914474	0.002582	-0.000302	1.000000	0.002599	-6.665774	14.993384	1.540557	13
	36	0.719895	127.180237	0.002605	-0.000316	1.000000	0.002624	-6.914191	14.993479	1.540552	13
	37	0.500102	112.680290	0.002628	-0.000330	1.000000	0.002649	-7.156571	14.993379	1.540563	13
	38	0.656610	100.160255	0.002653	-0.000344	1.000000	0.002675	-7.389913	14.993690	1.540564	13
	39	0.507962	88.778412	0.002678	-0.000359	1.000000	0.002702	-7.630675	14.993523	1.540530	13
	40	0.629732	78.649330	0.002705	-0.000374	1.000000	0.002730	-7.873682	14.993785	1.540523	13
	41	0.702580	69.616333	0.002733	-0.000390	1.000000	0.002760	-8.116508	14.993428	1.540523	13
	42	0.461897	61.677631	0.002762	-0.000406	1.000000	0.002792	-8.362567	14.993156	1.540521	13
	43	0.497537	54.505817	0.002794	-0.000423	1.000000	0.002826	-8.609011	14.993467	1.540541	13
	44	0.800636	48.491379	0.002826	-0.000440	1.000000	0.002860	-8.845100	14.993698	1.540522	13
	45	0.687853	42.873474	0.002860	-0.000458	1.000000	0.002897	-9.094439	14.993203	1.540509	13
	46	1.240717	38.006756	0.002897	-0.000476	1.000000	0.002936	-9.329813	14.993697	1.540527	13
	47	0.769625	33.642345	0.002936	-0.000495	1.000000	0.002978	-9.565707	14.993674	1.540527	13
	48	0.661377	29.793432	0.002978	-0.000513	1.000000	0.003022	-9.776406	14.993416	1.540530	13
	49	0.514474	26.334269	0.003024	-0.000532	1.000000	0.003070	-9.975388	14.994221	1.540529	13
	50	0.269367	23.437500	0.003070	-0.000548	1.000000	0.003119	-10.127125	14.993712	1.540506	13
	51	0.200350	20.741150	0.003178	-0.000517	1.000000	0.003220	-9.233786	14.994812	1.540880	13
	52	0.164875	18.310547	0.003279	-0.000485	1.000000	0.003315	-8.413721	14.995196	1.541132	13
	53	0.362981	16.276043	0.003259	-0.000561	1.000000	0.003307	-9.773311	14.994043	1.540626	13
	54	0.334561	14.378834	0.003326	-0.000560	1.000000	0.003373	-9.554150	14.994241	1.540664	13
	55	0.456075	12.737772	0.003376	-0.000572	1.000000	0.003424	-9.611186	14.994178	1.540589	13
	56	0.588374	11.268029	0.003430	-0.000578	1.000000	0.003479	-9.570399	14.993755	1.540483	13
	57	0.754103	10.016026	0.003484	-0.000577	1.000000	0.003532	-9.407915	14.994077	1.540433	13
	58	0.508065	8.877841	0.003554	-0.000553	1.000000	0.003597	-8.847152	14.993727	1.540474	13
	59	0.447403	7.864933	0.003620	-0.000528	1.000000	0.003658	-8.292254	14.994117	1.540509	13
	60	0.777742	6.975446	0.003657	-0.000535	1.000000	0.003696	-8.324149	14.993848	1.540384	13
	61	0.869433	6.151575	0.003710	-0.000516	1.000000	0.003746	-7.920492	14.993996	1.540348	13
	62	0.970374	5.476051	0.003755	-0.000498	1.000000	0.003788	-7.555414	14.994065	1.540308	13
	63	1.095693	4.842459	0.003801	-0.000475	1.000000	0.003831	-7.120029	14.994070	1.540299	13
	64	1.218894	4.300459	0.003839	-0.000454	1.000000	0.003866	-6.743843	14.994109	1.540263	13
	65	1.375318	3.792476	0.003877	-0.000429	1.000000	0.003901	-6.320091	14.994167	1.540243	13
	66	3.619510	3.367457	0.003906	-0.000413	1.000000	0.003928	-6.031521	14.993759	1.540208	13
	67	1.728862	2.989477	0.003939	-0.000382	1.000000	0.003958	-5.534551	14.993749	1.540216	13
	68	3.844985	2.639358	0.003966	-0.000363	1.000000	0.003983	-5.222994	14.994037	1.540207	13
	69	2.615048	2.343750	0.003984	-0.000329	1.000000	0.003997	-4.719349	15.038822	1.540420	13
	70	5.857081	2.068623	0.004011	-0.000314	1.000000	0.004023	-4.482427	15.010474	1.540224	13
	71	3.890654	1.825351	0.004030	-0.000288	1.000000	0.004040	-4.082283	15.017494	1.540300	13
	72	3.132471	1.625347	0.004047	-0.000266	1.000000	0.004056	-3.759320	15.021426	1.540303	13
	73	3.537212	1.436121	0.004063	-0.000248	1.000000	0.004071	-3.488369	15.015217	1.540249	13
	74	4.755459	1.276552	0.004078	-0.000233	1.000000	0.004084	-3.267321	15.007246	1.540226	13
	75	5.381624	1.126803	0.004091	-0.000216	1.000000	0.004097	-3.028731	15.004061	1.540204	13
	76	8.064144	0.999041	0.004102	-0.000203	1.000000	0.004107	-2.835601	14.999716	1.540167	13
	77	4.582239	0.883767	0.004112	-0.000186	1.000000	0.004116	-2.590313	15.004467	1.540222	13
	78	6.427690	0.784650	0.004122	-0.000174	1.000000	0.004125	-2.421149	15.000134	1.540177	13
	79	5.819632	0.696301	0.004130	-0.000163	1.000000	0.004133	-2.253528	15.000313	1.540222	13
	80	6.539991	0.616776	0.004137	-0.000150	1.000000	0.004140	-2.073395	14.998847	1.540223	13
	81	7.367887	0.547094	0.004144	-0.000140	1.000000	0.004146	-1.940440	14.997700	1.540328	13
	82	8.330386	0.483447	0.004152	-0.000132	1.000000	0.004155	-1.822515	14.997057	1.540346	13
	83	9.364319	0.429730	0.004159	-0.000125	1.000000	0.004161	-1.716668	14.996425	1.540397	13
	84	10.572557	0.380417	0.004162	-0.000117	1.000000	0.004164	-1.607814	14.995925	1.540429	13
	85	11.949355	0.336311	0.004169	-0.000110	1.000000	0.004171	-1.506414	14.995491	1.540486	13
	86	13.502353	0.297506	0.004174	-0.000104	1.000000	0.004176	-1.429928	14.995067	1.540488	13
	87	15.224951	0.263698	0.004176	-0.000100	1.000000	0.004177	-1.376857	14.994850	1.540481	13
	88	17.123162	0.234375	0.004178	-0.000095	1.000000	0.004179	-1.302142	14.994232	1.540478	13
	89	19.341552	0.207412	0.004181	-0.000091	1.000000	0.004182	-1.248211	14.994072	1.540473	13
